v4	V(n010)	I(Dgreen1)
0.000000000000000e+000	3.423329e-031	-0.000000e+000
1.000000000000000e-002	1.000000e-002	1.087483e-014
2.000000000000000e-002	2.000000e-002	2.182620e-014
3.000000000000000e-002	3.000000e-002	3.286080e-014
4.000000000000000e-002	4.000000e-002	4.398591e-014
5.000000000000000e-002	5.000000e-002	5.520944e-014
6.000000000000001e-002	6.000000e-002	6.654001e-014
7.000000000000001e-002	7.000000e-002	7.798699e-014
8.000000000000000e-002	8.000000e-002	8.956056e-014
9.000000000000000e-002	9.000000e-002	1.012718e-013
9.999999999999999e-002	1.000000e-001	1.131327e-013
1.100000000000000e-001	1.100000e-001	1.251564e-013
1.200000000000000e-001	1.200000e-001	1.373572e-013
1.300000000000000e-001	1.300000e-001	1.497505e-013
1.400000000000000e-001	1.400000e-001	1.623532e-013
1.500000000000000e-001	1.500000e-001	1.751836e-013
1.600000000000000e-001	1.600000e-001	1.882616e-013
1.700000000000000e-001	1.700000e-001	2.016088e-013
1.800000000000000e-001	1.800000e-001	2.152489e-013
1.900000000000000e-001	1.900000e-001	2.292074e-013
2.000000000000000e-001	2.000000e-001	2.435123e-013
2.100000000000001e-001	2.100000e-001	2.581937e-013
2.200000000000001e-001	2.200000e-001	2.732847e-013
2.300000000000001e-001	2.300000e-001	2.888211e-013
2.400000000000001e-001	2.400000e-001	3.048417e-013
2.500000000000001e-001	2.500000e-001	3.213892e-013
2.600000000000001e-001	2.600000e-001	3.385094e-013
2.700000000000001e-001	2.700000e-001	3.562525e-013
2.800000000000001e-001	2.800000e-001	3.746730e-013
2.900000000000001e-001	2.900000e-001	3.938301e-013
3.000000000000001e-001	3.000000e-001	4.137884e-013
3.100000000000001e-001	3.100000e-001	4.346178e-013
3.200000000000001e-001	3.200000e-001	4.563946e-013
3.300000000000001e-001	3.300000e-001	4.792017e-013
3.400000000000001e-001	3.400000e-001	5.031293e-013
3.500000000000001e-001	3.500000e-001	5.282752e-013
3.600000000000002e-001	3.600000e-001	5.547462e-013
3.700000000000002e-001	3.700000e-001	5.826581e-013
3.800000000000002e-001	3.800000e-001	6.121370e-013
3.900000000000002e-001	3.900000e-001	6.433200e-013
4.000000000000002e-001	4.000000e-001	6.763562e-013
4.100000000000002e-001	4.100000e-001	7.114076e-013
4.200000000000002e-001	4.200000e-001	7.486506e-013
4.300000000000002e-001	4.300000e-001	7.882769e-013
4.400000000000002e-001	4.400000e-001	8.304951e-013
4.500000000000002e-001	4.500000e-001	8.755317e-013
4.600000000000002e-001	4.600000e-001	9.236336e-013
4.700000000000003e-001	4.700000e-001	9.750687e-013
4.800000000000003e-001	4.800000e-001	1.030129e-012
4.900000000000003e-001	4.900000e-001	1.089131e-012
5.000000000000002e-001	5.000000e-001	1.152420e-012
5.100000000000002e-001	5.100000e-001	1.220370e-012
5.200000000000002e-001	5.200000e-001	1.293391e-012
5.300000000000003e-001	5.300000e-001	1.371924e-012
5.400000000000003e-001	5.400000e-001	1.456454e-012
5.500000000000003e-001	5.500000e-001	1.547503e-012
5.600000000000003e-001	5.600000e-001	1.645643e-012
5.700000000000003e-001	5.700000e-001	1.751494e-012
5.800000000000003e-001	5.800000e-001	1.865730e-012
5.900000000000003e-001	5.900000e-001	1.989085e-012
6.000000000000003e-001	6.000000e-001	2.122356e-012
6.100000000000003e-001	6.100000e-001	2.266412e-012
6.200000000000003e-001	6.200000e-001	2.422196e-012
6.300000000000003e-001	6.300000e-001	2.590733e-012
6.400000000000004e-001	6.400000e-001	2.773139e-012
6.500000000000004e-001	6.500000e-001	2.970629e-012
6.600000000000004e-001	6.600000e-001	3.184520e-012
6.700000000000004e-001	6.700000e-001	3.416249e-012
6.800000000000004e-001	6.800000e-001	3.667375e-012
6.900000000000004e-001	6.900000e-001	3.939596e-012
7.000000000000004e-001	7.000000e-001	4.234756e-012
7.100000000000004e-001	7.100000e-001	4.554864e-012
7.200000000000004e-001	7.200000e-001	4.902101e-012
7.300000000000004e-001	7.300000e-001	5.278840e-012
7.400000000000004e-001	7.400000e-001	5.687663e-012
7.500000000000004e-001	7.500000e-001	6.131377e-012
7.600000000000005e-001	7.600000e-001	6.613033e-012
7.700000000000005e-001	7.700000e-001	7.135952e-012
7.800000000000005e-001	7.800000e-001	7.703742e-012
7.900000000000005e-001	7.900000e-001	8.320331e-012
8.000000000000005e-001	8.000000e-001	8.989984e-012
8.100000000000005e-001	8.100000e-001	9.717348e-012
8.200000000000005e-001	8.200000e-001	1.050747e-011
8.300000000000005e-001	8.300000e-001	1.136584e-011
8.400000000000005e-001	8.400000e-001	1.229842e-011
8.500000000000005e-001	8.500000e-001	1.331172e-011
8.600000000000005e-001	8.600000e-001	1.441279e-011
8.700000000000006e-001	8.700000e-001	1.560931e-011
8.800000000000006e-001	8.800000e-001	1.690963e-011
8.900000000000006e-001	8.900000e-001	1.832283e-011
9.000000000000006e-001	9.000000e-001	1.985879e-011
9.100000000000006e-001	9.100000e-001	2.152825e-011
9.200000000000006e-001	9.200000e-001	2.334288e-011
9.300000000000006e-001	9.300000e-001	2.531538e-011
9.400000000000006e-001	9.400000e-001	2.745957e-011
9.500000000000006e-001	9.500000e-001	2.979048e-011
9.600000000000006e-001	9.600000e-001	3.232441e-011
9.700000000000006e-001	9.700000e-001	3.507915e-011
9.800000000000007e-001	9.800000e-001	3.807402e-011
9.900000000000007e-001	9.900000e-001	4.133001e-011
1.000000000000001e+000	1.000000e+000	4.486997e-011
1.010000000000001e+000	1.010000e+000	4.871874e-011
1.020000000000001e+000	1.020000e+000	5.290333e-011
1.030000000000001e+000	1.030000e+000	5.745315e-011
1.040000000000001e+000	1.040000e+000	6.240011e-011
1.050000000000001e+000	1.050000e+000	6.777898e-011
1.060000000000001e+000	1.060000e+000	7.362754e-011
1.070000000000001e+000	1.070000e+000	7.998687e-011
1.080000000000001e+000	1.080000e+000	8.690167e-011
1.090000000000001e+000	1.090000e+000	9.442052e-011
1.100000000000001e+000	1.100000e+000	1.025963e-010
1.110000000000001e+000	1.110000e+000	1.114864e-010
1.120000000000001e+000	1.120000e+000	1.211534e-010
1.130000000000001e+000	1.130000e+000	1.316652e-010
1.140000000000001e+000	1.140000e+000	1.430957e-010
1.150000000000001e+000	1.150000e+000	1.555254e-010
1.160000000000001e+000	1.160000e+000	1.690415e-010
1.170000000000001e+000	1.170000e+000	1.837393e-010
1.180000000000001e+000	1.180000e+000	1.997219e-010
1.190000000000001e+000	1.190000e+000	2.171019e-010
1.200000000000001e+000	1.200000e+000	2.360016e-010
1.210000000000001e+000	1.210000e+000	2.565537e-010
1.220000000000001e+000	1.220000e+000	2.789029e-010
1.230000000000001e+000	1.230000e+000	3.032064e-010
1.240000000000001e+000	1.240000e+000	3.296352e-010
1.250000000000001e+000	1.250000e+000	3.583752e-010
1.260000000000001e+000	1.260000e+000	3.896287e-010
1.270000000000001e+000	1.270000e+000	4.236154e-010
1.280000000000001e+000	1.280000e+000	4.605745e-010
1.290000000000001e+000	1.290000e+000	5.007660e-010
1.300000000000001e+000	1.300000e+000	5.444727e-010
1.310000000000001e+000	1.310000e+000	5.920022e-010
1.320000000000001e+000	1.320000e+000	6.436889e-010
1.330000000000001e+000	1.330000e+000	6.998964e-010
1.340000000000001e+000	1.340000e+000	7.610202e-010
1.350000000000001e+000	1.350000e+000	8.274905e-010
1.360000000000001e+000	1.360000e+000	8.997750e-010
1.370000000000001e+000	1.370000e+000	9.783823e-010
1.380000000000001e+000	1.380000e+000	1.063865e-009
1.390000000000001e+000	1.390000e+000	1.156826e-009
1.400000000000001e+000	1.400000e+000	1.257918e-009
1.410000000000001e+000	1.410000e+000	1.367854e-009
1.420000000000001e+000	1.420000e+000	1.487406e-009
1.430000000000001e+000	1.430000e+000	1.617416e-009
1.440000000000001e+000	1.440000e+000	1.758798e-009
1.450000000000001e+000	1.450000e+000	1.912549e-009
1.460000000000001e+000	1.460000e+000	2.079749e-009
1.470000000000001e+000	1.470000e+000	2.261575e-009
1.480000000000001e+000	1.480000e+000	2.459308e-009
1.490000000000001e+000	1.490000e+000	2.674337e-009
1.500000000000001e+000	1.500000e+000	2.908178e-009
1.510000000000001e+000	1.510000e+000	3.162474e-009
1.520000000000001e+000	1.520000e+000	3.439016e-009
1.530000000000001e+000	1.530000e+000	3.739750e-009
1.540000000000001e+000	1.540000e+000	4.066793e-009
1.550000000000001e+000	1.550000e+000	4.422445e-009
1.560000000000001e+000	1.559999e+000	4.809209e-009
1.570000000000001e+000	1.569999e+000	5.229808e-009
1.580000000000001e+000	1.579999e+000	5.687201e-009
1.590000000000001e+000	1.589999e+000	6.184607e-009
1.600000000000001e+000	1.599999e+000	6.725526e-009
1.610000000000001e+000	1.609999e+000	7.313766e-009
1.620000000000001e+000	1.619999e+000	7.953465e-009
1.630000000000001e+000	1.629999e+000	8.649127e-009
1.640000000000001e+000	1.639999e+000	9.405644e-009
1.650000000000001e+000	1.649999e+000	1.022834e-008
1.660000000000001e+000	1.659999e+000	1.112301e-008
1.670000000000001e+000	1.669999e+000	1.209595e-008
1.680000000000001e+000	1.679999e+000	1.315400e-008
1.690000000000001e+000	1.689999e+000	1.430460e-008
1.700000000000001e+000	1.699998e+000	1.555587e-008
1.710000000000001e+000	1.709998e+000	1.691659e-008
1.720000000000001e+000	1.719998e+000	1.839635e-008
1.730000000000001e+000	1.729998e+000	2.000556e-008
1.740000000000001e+000	1.739998e+000	2.175554e-008
1.750000000000001e+000	1.749998e+000	2.365861e-008
1.760000000000001e+000	1.759997e+000	2.572817e-008
1.770000000000001e+000	1.769997e+000	2.797876e-008
1.780000000000001e+000	1.779997e+000	3.042623e-008
1.790000000000001e+000	1.789997e+000	3.308780e-008
1.800000000000001e+000	1.799996e+000	3.598221e-008
1.810000000000001e+000	1.809996e+000	3.912981e-008
1.820000000000001e+000	1.819996e+000	4.255275e-008
1.830000000000001e+000	1.829995e+000	4.627512e-008
1.840000000000001e+000	1.839995e+000	5.032311e-008
1.850000000000001e+000	1.849995e+000	5.472519e-008
1.860000000000001e+000	1.859994e+000	5.951235e-008
1.870000000000001e+000	1.869994e+000	6.471826e-008
1.880000000000001e+000	1.879993e+000	7.037956e-008
1.890000000000002e+000	1.889992e+000	7.653605e-008
1.900000000000002e+000	1.899992e+000	8.323107e-008
1.910000000000002e+000	1.909991e+000	9.051170e-008
1.920000000000002e+000	1.919990e+000	9.842918e-008
1.930000000000002e+000	1.929989e+000	1.070392e-007
1.940000000000002e+000	1.939988e+000	1.164023e-007
1.950000000000002e+000	1.949987e+000	1.265843e-007
1.960000000000002e+000	1.959986e+000	1.376569e-007
1.970000000000002e+000	1.969985e+000	1.496979e-007
1.980000000000002e+000	1.979984e+000	1.627920e-007
1.990000000000002e+000	1.989982e+000	1.770314e-007
2.000000000000001e+000	1.999981e+000	1.925161e-007
2.010000000000001e+000	2.009979e+000	2.093549e-007
2.020000000000001e+000	2.019977e+000	2.276663e-007
2.030000000000001e+000	2.029975e+000	2.475791e-007
2.040000000000001e+000	2.039973e+000	2.692331e-007
2.050000000000000e+000	2.049971e+000	2.927806e-007
2.060000000000000e+000	2.059968e+000	3.183870e-007
2.070000000000000e+000	2.069965e+000	3.462324e-007
2.080000000000000e+000	2.079962e+000	3.765123e-007
2.089999999999999e+000	2.089959e+000	4.094394e-007
2.099999999999999e+000	2.099956e+000	4.452450e-007
2.109999999999999e+000	2.109951e+000	4.841806e-007
2.119999999999999e+000	2.119947e+000	5.265196e-007
2.129999999999999e+000	2.129943e+000	5.725590e-007
2.139999999999998e+000	2.139938e+000	6.226222e-007
2.149999999999998e+000	2.149932e+000	6.770602e-007
2.159999999999998e+000	2.159926e+000	7.362551e-007
2.169999999999998e+000	2.169920e+000	8.006218e-007
2.179999999999998e+000	2.179913e+000	8.706116e-007
2.189999999999997e+000	2.189905e+000	9.467152e-007
2.199999999999997e+000	2.199897e+000	1.029465e-006
2.209999999999997e+000	2.209888e+000	1.119442e-006
2.219999999999997e+000	2.219878e+000	1.217275e-006
2.229999999999996e+000	2.229868e+000	1.323648e-006
2.239999999999996e+000	2.239856e+000	1.439305e-006
2.249999999999996e+000	2.249844e+000	1.565055e-006
2.259999999999996e+000	2.259830e+000	1.701777e-006
2.269999999999996e+000	2.269815e+000	1.850423e-006
2.279999999999995e+000	2.279799e+000	2.012031e-006
2.289999999999995e+000	2.289781e+000	2.187729e-006
2.299999999999995e+000	2.299762e+000	2.378737e-006
2.309999999999995e+000	2.309741e+000	2.586387e-006
2.319999999999995e+000	2.319719e+000	2.812120e-006
2.329999999999994e+000	2.329694e+000	3.057505e-006
2.339999999999994e+000	2.339668e+000	3.324242e-006
2.349999999999994e+000	2.349639e+000	3.614179e-006
2.359999999999994e+000	2.359607e+000	3.929321e-006
2.369999999999993e+000	2.369573e+000	4.271844e-006
2.379999999999993e+000	2.379536e+000	4.644110e-006
2.389999999999993e+000	2.389495e+000	5.048679e-006
2.399999999999993e+000	2.399451e+000	5.488331e-006
2.409999999999993e+000	2.409403e+000	5.966078e-006
2.419999999999992e+000	2.419352e+000	6.485187e-006
2.429999999999992e+000	2.429295e+000	7.049198e-006
2.439999999999992e+000	2.439234e+000	7.661948e-006
2.449999999999992e+000	2.449167e+000	8.327591e-006
2.459999999999992e+000	2.459095e+000	9.050627e-006
2.469999999999991e+000	2.469016e+000	9.835928e-006
2.479999999999991e+000	2.478931e+000	1.068876e-005
2.489999999999991e+000	2.488838e+000	1.161483e-005
2.499999999999991e+000	2.498738e+000	1.262028e-005
2.509999999999991e+000	2.508629e+000	1.371179e-005
2.519999999999990e+000	2.518510e+000	1.489654e-005
2.529999999999990e+000	2.528382e+000	1.618228e-005
2.539999999999990e+000	2.538242e+000	1.757739e-005
2.549999999999990e+000	2.548091e+000	1.909087e-005
2.559999999999989e+000	2.557927e+000	2.073244e-005
2.569999999999989e+000	2.567749e+000	2.251255e-005
2.579999999999989e+000	2.577556e+000	2.444244e-005
2.589999999999989e+000	2.587347e+000	2.653416e-005
2.599999999999989e+000	2.597120e+000	2.880066e-005
2.609999999999988e+000	2.606874e+000	3.125581e-005
2.619999999999988e+000	2.616609e+000	3.391448e-005
2.629999999999988e+000	2.626321e+000	3.679252e-005
2.639999999999988e+000	2.636009e+000	3.990689e-005
2.649999999999988e+000	2.645672e+000	4.327564e-005
2.659999999999987e+000	2.655308e+000	4.691801e-005
2.669999999999987e+000	2.664915e+000	5.085439e-005
2.679999999999987e+000	2.674489e+000	5.510645e-005
2.689999999999987e+000	2.684030e+000	5.969707e-005
2.699999999999986e+000	2.693535e+000	6.465046e-005
2.709999999999986e+000	2.703001e+000	6.999204e-005
2.719999999999986e+000	2.712425e+000	7.574861e-005
2.729999999999986e+000	2.721805e+000	8.194817e-005
2.739999999999986e+000	2.731138e+000	8.862002e-005
2.749999999999985e+000	2.740421e+000	9.579467e-005
2.759999999999985e+000	2.749650e+000	1.035038e-004
2.769999999999985e+000	2.758822e+000	1.117801e-004
2.779999999999985e+000	2.767934e+000	1.206573e-004
2.789999999999985e+000	2.776983e+000	1.301702e-004
2.799999999999984e+000	2.785964e+000	1.403540e-004
2.809999999999984e+000	2.794876e+000	1.512449e-004
2.819999999999984e+000	2.803712e+000	1.628793e-004
2.829999999999984e+000	2.812471e+000	1.752939e-004
2.839999999999983e+000	2.821147e+000	1.885255e-004
2.849999999999983e+000	2.829739e+000	2.026108e-004
2.859999999999983e+000	2.838241e+000	2.175860e-004
2.869999999999983e+000	2.846651e+000	2.334867e-004
2.879999999999983e+000	2.854965e+000	2.503477e-004
2.889999999999982e+000	2.863180e+000	2.682026e-004
2.899999999999982e+000	2.871292e+000	2.870838e-004
2.909999999999982e+000	2.879298e+000	3.070219e-004
2.919999999999982e+000	2.887195e+000	3.280458e-004
2.929999999999982e+000	2.894982e+000	3.501825e-004
2.939999999999981e+000	2.902654e+000	3.734565e-004
2.949999999999981e+000	2.910211e+000	3.978903e-004
2.959999999999981e+000	2.917650e+000	4.235035e-004
2.969999999999981e+000	2.924969e+000	4.503133e-004
2.979999999999980e+000	2.932167e+000	4.783342e-004
2.989999999999980e+000	2.939242e+000	5.075780e-004
2.999999999999980e+000	2.946195e+000	5.380535e-004
3.009999999999980e+000	2.953023e+000	5.697669e-004
3.019999999999980e+000	2.959728e+000	6.027218e-004
3.029999999999979e+000	2.966308e+000	6.369188e-004
3.039999999999979e+000	2.972764e+000	6.723563e-004
3.049999999999979e+000	2.979097e+000	7.090300e-004
3.059999999999979e+000	2.985307e+000	7.469333e-004
3.069999999999979e+000	2.991394e+000	7.860576e-004
3.079999999999978e+000	2.997361e+000	8.263921e-004
3.089999999999978e+000	3.003208e+000	8.679241e-004
3.099999999999978e+000	3.008936e+000	9.106393e-004
3.109999999999978e+000	3.014548e+000	9.545218e-004
3.119999999999978e+000	3.020045e+000	9.995544e-004
3.129999999999977e+000	3.025428e+000	1.045719e-003
3.139999999999977e+000	3.030700e+000	1.092995e-003
3.149999999999977e+000	3.035864e+000	1.141363e-003
3.159999999999977e+000	3.040920e+000	1.190802e-003
3.169999999999976e+000	3.045871e+000	1.241290e-003
3.179999999999976e+000	3.050719e+000	1.292805e-003
3.189999999999976e+000	3.055468e+000	1.345324e-003
3.199999999999976e+000	3.060118e+000	1.398824e-003
3.209999999999976e+000	3.064672e+000	1.453283e-003
3.219999999999975e+000	3.069132e+000	1.508678e-003
3.229999999999975e+000	3.073501e+000	1.564986e-003
3.239999999999975e+000	3.077782e+000	1.622184e-003
3.249999999999975e+000	3.081975e+000	1.680250e-003
3.259999999999975e+000	3.086084e+000	1.739160e-003
3.269999999999974e+000	3.090111e+000	1.798894e-003
3.279999999999974e+000	3.094057e+000	1.859429e-003
3.289999999999974e+000	3.097925e+000	1.920745e-003
3.299999999999974e+000	3.101718e+000	1.982819e-003
3.309999999999973e+000	3.105437e+000	2.045632e-003
3.319999999999973e+000	3.109084e+000	2.109164e-003
3.329999999999973e+000	3.112661e+000	2.173394e-003
3.339999999999973e+000	3.116169e+000	2.238305e-003
3.349999999999973e+000	3.119612e+000	2.303876e-003
3.359999999999972e+000	3.122991e+000	2.370090e-003
3.369999999999972e+000	3.126307e+000	2.436929e-003
3.379999999999972e+000	3.129562e+000	2.504376e-003
3.389999999999972e+000	3.132759e+000	2.572414e-003
3.399999999999972e+000	3.135897e+000	2.641027e-003
3.409999999999971e+000	3.138980e+000	2.710199e-003
3.419999999999971e+000	3.142009e+000	2.779915e-003
3.429999999999971e+000	3.144984e+000	2.850160e-003
3.439999999999971e+000	3.147908e+000	2.920919e-003
3.449999999999970e+000	3.150782e+000	2.992179e-003
3.459999999999970e+000	3.153607e+000	3.063925e-003
3.469999999999970e+000	3.156385e+000	3.136146e-003
3.479999999999970e+000	3.159117e+000	3.208827e-003
3.489999999999970e+000	3.161804e+000	3.281958e-003
3.499999999999969e+000	3.164448e+000	3.355525e-003
3.509999999999969e+000	3.167048e+000	3.429518e-003
3.519999999999969e+000	3.169608e+000	3.503924e-003
3.529999999999969e+000	3.172127e+000	3.578735e-003
3.539999999999969e+000	3.174606e+000	3.653938e-003
3.549999999999968e+000	3.177048e+000	3.729524e-003
3.559999999999968e+000	3.179452e+000	3.805483e-003
3.569999999999968e+000	3.181819e+000	3.881805e-003
3.579999999999968e+000	3.184152e+000	3.958482e-003
3.589999999999967e+000	3.186450e+000	4.035505e-003
3.599999999999967e+000	3.188714e+000	4.112863e-003
3.609999999999967e+000	3.190945e+000	4.190551e-003
3.619999999999967e+000	3.193144e+000	4.268559e-003
3.629999999999967e+000	3.195312e+000	4.346879e-003
3.639999999999966e+000	3.197450e+000	4.425504e-003
3.649999999999966e+000	3.199557e+000	4.504427e-003
3.659999999999966e+000	3.201636e+000	4.583641e-003
3.669999999999966e+000	3.203686e+000	4.663138e-003
3.679999999999966e+000	3.205709e+000	4.742912e-003
3.689999999999965e+000	3.207704e+000	4.822957e-003
3.699999999999965e+000	3.209673e+000	4.903265e-003
3.709999999999965e+000	3.211617e+000	4.983833e-003
3.719999999999965e+000	3.213535e+000	5.064652e-003
3.729999999999965e+000	3.215428e+000	5.145717e-003
3.739999999999964e+000	3.217298e+000	5.227024e-003
3.749999999999964e+000	3.219143e+000	5.308567e-003
3.759999999999964e+000	3.220966e+000	5.390340e-003
3.769999999999964e+000	3.222766e+000	5.472337e-003
3.779999999999963e+000	3.224544e+000	5.554556e-003
3.789999999999963e+000	3.226301e+000	5.636990e-003
3.799999999999963e+000	3.228036e+000	5.719636e-003
3.809999999999963e+000	3.229751e+000	5.802487e-003
3.819999999999963e+000	3.231446e+000	5.885541e-003
3.829999999999962e+000	3.233121e+000	5.968793e-003
