Circuit: * C:\Users\demo\Documents\Studium\ESE\WS23\Elektronik\Lab\Versuch02\Circuits\2_4_1_e.asc

.step v_i=2.5 r_e=100
Direct Newton iteration for .op point succeeded.
Semiconductor Device Operating Points:
                        --- Bipolar Transistors ---
Name:      q§t1
Model:    bc547b
Ib:       6.20e-05
Ic:       1.77e-02
Vbe:      7.22e-01
Vbc:     -7.50e+00
Vce:      8.22e+00
BetaDC:   2.86e+02
Gm:       6.13e-01
Rpi:      4.21e+02
Rx:       1.00e+00
Ro:       3.89e+03
Cbe:      3.57e-10
Cbc:      9.57e-13
Cjs:      0.00e+00
BetaAC:   2.58e+02
Cbx:      5.88e-13
Ft:       2.72e+08


.step v_i=5 r_e=100
.step v_i=2.5 r_e=200
.step v_i=5 r_e=200

Date: Tue Nov 21 17:21:06 2023
Total elapsed time: 7.138 seconds.

tnom = 27
temp = 27
method = trap
totiter = 8
traniter = 0
tranpoints = 0
accept = 0
rejected = 0
matrix size = 9
fillins = 0
solver = Normal
Matrix Compiler1: 394 bytes object code size
Matrix Compiler2: 667 bytes object code size
