vi	V(si)	I(Si)
-5.000000000000000e+000	-5.000000e+000	-2.525001e-009
-4.990000000000000e+000	-4.989999e+000	-2.524991e-009
-4.980000000000000e+000	-4.980000e+000	-2.524980e-009
-4.970000000000001e+000	-4.969999e+000	-2.524971e-009
-4.960000000000001e+000	-4.960000e+000	-2.524961e-009
-4.950000000000001e+000	-4.949999e+000	-2.524950e-009
-4.940000000000001e+000	-4.940000e+000	-2.524941e-009
-4.930000000000002e+000	-4.929999e+000	-2.524930e-009
-4.920000000000002e+000	-4.920000e+000	-2.524921e-009
-4.910000000000002e+000	-4.909999e+000	-2.524911e-009
-4.900000000000002e+000	-4.900000e+000	-2.524901e-009
-4.890000000000002e+000	-4.889999e+000	-2.524891e-009
-4.880000000000003e+000	-4.880000e+000	-2.524880e-009
-4.870000000000003e+000	-4.869999e+000	-2.524871e-009
-4.860000000000003e+000	-4.860000e+000	-2.524861e-009
-4.850000000000003e+000	-4.849999e+000	-2.524850e-009
-4.840000000000003e+000	-4.840000e+000	-2.524841e-009
-4.830000000000004e+000	-4.829999e+000	-2.524830e-009
-4.820000000000004e+000	-4.820000e+000	-2.524821e-009
-4.810000000000004e+000	-4.809999e+000	-2.524811e-009
-4.800000000000004e+000	-4.800000e+000	-2.524800e-009
-4.790000000000005e+000	-4.789999e+000	-2.524791e-009
-4.780000000000005e+000	-4.780000e+000	-2.524780e-009
-4.770000000000005e+000	-4.770000e+000	-2.524771e-009
-4.760000000000005e+000	-4.759999e+000	-2.524761e-009
-4.750000000000005e+000	-4.750000e+000	-2.524750e-009
-4.740000000000006e+000	-4.739999e+000	-2.524741e-009
-4.730000000000006e+000	-4.730000e+000	-2.524730e-009
-4.720000000000006e+000	-4.719999e+000	-2.524721e-009
-4.710000000000006e+000	-4.710000e+000	-2.524711e-009
-4.700000000000006e+000	-4.699999e+000	-2.524700e-009
-4.690000000000007e+000	-4.690000e+000	-2.524691e-009
-4.680000000000007e+000	-4.679999e+000	-2.524680e-009
-4.670000000000007e+000	-4.670000e+000	-2.524671e-009
-4.660000000000007e+000	-4.659999e+000	-2.524661e-009
-4.650000000000008e+000	-4.650000e+000	-2.524650e-009
-4.640000000000008e+000	-4.639999e+000	-2.524641e-009
-4.630000000000008e+000	-4.630000e+000	-2.524630e-009
-4.620000000000008e+000	-4.619999e+000	-2.524621e-009
-4.610000000000008e+000	-4.610000e+000	-2.524611e-009
-4.600000000000009e+000	-4.599999e+000	-2.524600e-009
-4.590000000000009e+000	-4.590000e+000	-2.524591e-009
-4.580000000000009e+000	-4.579999e+000	-2.524580e-009
-4.570000000000009e+000	-4.570000e+000	-2.524571e-009
-4.560000000000009e+000	-4.559999e+000	-2.524561e-009
-4.550000000000010e+000	-4.550000e+000	-2.524550e-009
-4.540000000000010e+000	-4.539999e+000	-2.524541e-009
-4.530000000000010e+000	-4.530000e+000	-2.524531e-009
-4.520000000000010e+000	-4.520000e+000	-2.524521e-009
-4.510000000000010e+000	-4.509999e+000	-2.524511e-009
-4.500000000000011e+000	-4.500000e+000	-2.524500e-009
-4.490000000000011e+000	-4.489999e+000	-2.524491e-009
-4.480000000000011e+000	-4.480000e+000	-2.524482e-009
-4.470000000000011e+000	-4.469999e+000	-2.524470e-009
-4.460000000000012e+000	-4.460000e+000	-2.524461e-009
-4.450000000000012e+000	-4.449999e+000	-2.524450e-009
-4.440000000000012e+000	-4.440000e+000	-2.524441e-009
-4.430000000000012e+000	-4.429999e+000	-2.524431e-009
-4.420000000000012e+000	-4.420000e+000	-2.524420e-009
-4.410000000000013e+000	-4.409999e+000	-2.524411e-009
-4.400000000000013e+000	-4.400000e+000	-2.524400e-009
-4.390000000000013e+000	-4.389999e+000	-2.524391e-009
-4.380000000000013e+000	-4.380000e+000	-2.524381e-009
-4.370000000000013e+000	-4.369999e+000	-2.524370e-009
-4.360000000000014e+000	-4.360000e+000	-2.524361e-009
-4.350000000000014e+000	-4.349999e+000	-2.524350e-009
-4.340000000000014e+000	-4.340000e+000	-2.524341e-009
-4.330000000000014e+000	-4.329999e+000	-2.524331e-009
-4.320000000000015e+000	-4.320000e+000	-2.524320e-009
-4.310000000000015e+000	-4.309999e+000	-2.524311e-009
-4.300000000000015e+000	-4.300000e+000	-2.524300e-009
-4.290000000000015e+000	-4.289999e+000	-2.524291e-009
-4.280000000000015e+000	-4.280000e+000	-2.524281e-009
-4.270000000000016e+000	-4.270000e+000	-2.524270e-009
-4.260000000000016e+000	-4.259999e+000	-2.524261e-009
-4.250000000000016e+000	-4.250000e+000	-2.524250e-009
-4.240000000000016e+000	-4.239999e+000	-2.524241e-009
-4.230000000000016e+000	-4.230000e+000	-2.524231e-009
-4.220000000000017e+000	-4.219999e+000	-2.524220e-009
-4.210000000000017e+000	-4.210000e+000	-2.524211e-009
-4.200000000000017e+000	-4.199999e+000	-2.524200e-009
-4.190000000000017e+000	-4.190000e+000	-2.524191e-009
-4.180000000000018e+000	-4.179999e+000	-2.524181e-009
-4.170000000000018e+000	-4.170000e+000	-2.524170e-009
-4.160000000000018e+000	-4.159999e+000	-2.524161e-009
-4.150000000000018e+000	-4.150000e+000	-2.524150e-009
-4.140000000000018e+000	-4.139999e+000	-2.524140e-009
-4.130000000000019e+000	-4.130000e+000	-2.524131e-009
-4.120000000000019e+000	-4.119999e+000	-2.524120e-009
-4.110000000000019e+000	-4.110000e+000	-2.524111e-009
-4.100000000000019e+000	-4.099999e+000	-2.524100e-009
-4.090000000000019e+000	-4.090000e+000	-2.524090e-009
-4.080000000000020e+000	-4.079999e+000	-2.524081e-009
-4.070000000000020e+000	-4.070000e+000	-2.524070e-009
-4.060000000000020e+000	-4.059999e+000	-2.524061e-009
-4.050000000000020e+000	-4.050000e+000	-2.524050e-009
-4.040000000000021e+000	-4.039999e+000	-2.524041e-009
-4.030000000000021e+000	-4.030000e+000	-2.524031e-009
-4.020000000000021e+000	-4.020000e+000	-2.524020e-009
-4.010000000000021e+000	-4.009999e+000	-2.524011e-009
-4.000000000000021e+000	-4.000000e+000	-2.524001e-009
-3.990000000000022e+000	-3.990000e+000	-2.523990e-009
-3.980000000000022e+000	-3.980000e+000	-2.523980e-009
-3.970000000000022e+000	-3.970000e+000	-2.523971e-009
-3.960000000000022e+000	-3.960000e+000	-2.523961e-009
-3.950000000000022e+000	-3.950000e+000	-2.523951e-009
-3.940000000000023e+000	-3.940000e+000	-2.523940e-009
-3.930000000000023e+000	-3.930000e+000	-2.523930e-009
-3.920000000000023e+000	-3.920000e+000	-2.523921e-009
-3.910000000000023e+000	-3.910000e+000	-2.523911e-009
-3.900000000000023e+000	-3.899999e+000	-2.523900e-009
-3.890000000000024e+000	-3.889999e+000	-2.523890e-009
-3.880000000000024e+000	-3.879999e+000	-2.523880e-009
-3.870000000000024e+000	-3.869999e+000	-2.523871e-009
-3.860000000000024e+000	-3.859999e+000	-2.523861e-009
-3.850000000000025e+000	-3.849999e+000	-2.523850e-009
-3.840000000000025e+000	-3.839999e+000	-2.523840e-009
-3.830000000000025e+000	-3.829999e+000	-2.523831e-009
-3.820000000000025e+000	-3.819999e+000	-2.523821e-009
-3.810000000000025e+000	-3.809999e+000	-2.523810e-009
-3.800000000000026e+000	-3.799999e+000	-2.523801e-009
-3.790000000000026e+000	-3.789999e+000	-2.523790e-009
-3.780000000000026e+000	-3.779999e+000	-2.523781e-009
-3.770000000000026e+000	-3.770000e+000	-2.523771e-009
-3.760000000000026e+000	-3.760000e+000	-2.523761e-009
-3.750000000000027e+000	-3.750000e+000	-2.523750e-009
-3.740000000000027e+000	-3.740000e+000	-2.523740e-009
-3.730000000000027e+000	-3.730000e+000	-2.523731e-009
-3.720000000000027e+000	-3.720000e+000	-2.523721e-009
-3.710000000000028e+000	-3.710000e+000	-2.523711e-009
-3.700000000000028e+000	-3.700000e+000	-2.523700e-009
-3.690000000000028e+000	-3.690000e+000	-2.523690e-009
-3.680000000000028e+000	-3.680000e+000	-2.523681e-009
-3.670000000000028e+000	-3.670000e+000	-2.523671e-009
-3.660000000000029e+000	-3.660000e+000	-2.523660e-009
-3.650000000000029e+000	-3.649999e+000	-2.523650e-009
-3.640000000000029e+000	-3.639999e+000	-2.523640e-009
-3.630000000000029e+000	-3.629999e+000	-2.523631e-009
-3.620000000000029e+000	-3.619999e+000	-2.523621e-009
-3.610000000000030e+000	-3.609999e+000	-2.523610e-009
-3.600000000000030e+000	-3.599999e+000	-2.523600e-009
-3.590000000000030e+000	-3.589999e+000	-2.523591e-009
-3.580000000000030e+000	-3.579999e+000	-2.523581e-009
-3.570000000000031e+000	-3.569999e+000	-2.523570e-009
-3.560000000000031e+000	-3.559999e+000	-2.523560e-009
-3.550000000000031e+000	-3.549999e+000	-2.523550e-009
-3.540000000000031e+000	-3.539999e+000	-2.523541e-009
-3.530000000000031e+000	-3.529999e+000	-2.523531e-009
-3.520000000000032e+000	-3.520000e+000	-2.523521e-009
-3.510000000000032e+000	-3.510000e+000	-2.523510e-009
-3.500000000000032e+000	-3.500000e+000	-2.523500e-009
-3.490000000000032e+000	-3.490000e+000	-2.523491e-009
-3.480000000000032e+000	-3.480000e+000	-2.523481e-009
-3.470000000000033e+000	-3.470000e+000	-2.523471e-009
-3.460000000000033e+000	-3.460000e+000	-2.523460e-009
-3.450000000000033e+000	-3.450000e+000	-2.523450e-009
-3.440000000000033e+000	-3.440000e+000	-2.523441e-009
-3.430000000000034e+000	-3.430000e+000	-2.523431e-009
-3.420000000000034e+000	-3.420000e+000	-2.523420e-009
-3.410000000000034e+000	-3.410000e+000	-2.523410e-009
-3.400000000000034e+000	-3.399999e+000	-2.523400e-009
-3.390000000000034e+000	-3.389999e+000	-2.523391e-009
-3.380000000000035e+000	-3.379999e+000	-2.523381e-009
-3.370000000000035e+000	-3.369999e+000	-2.523370e-009
-3.360000000000035e+000	-3.359999e+000	-2.523360e-009
-3.350000000000035e+000	-3.349999e+000	-2.523350e-009
-3.340000000000035e+000	-3.339999e+000	-2.523341e-009
-3.330000000000036e+000	-3.329999e+000	-2.523330e-009
-3.320000000000036e+000	-3.319999e+000	-2.523320e-009
-3.310000000000036e+000	-3.309999e+000	-2.523310e-009
-3.300000000000036e+000	-3.299999e+000	-2.523301e-009
-3.290000000000037e+000	-3.289999e+000	-2.523291e-009
-3.280000000000037e+000	-3.279999e+000	-2.523280e-009
-3.270000000000037e+000	-3.270000e+000	-2.523270e-009
-3.260000000000037e+000	-3.260000e+000	-2.523260e-009
-3.250000000000037e+000	-3.250000e+000	-2.523251e-009
-3.240000000000038e+000	-3.240000e+000	-2.523241e-009
-3.230000000000038e+000	-3.230000e+000	-2.523231e-009
-3.220000000000038e+000	-3.220000e+000	-2.523220e-009
-3.210000000000038e+000	-3.210000e+000	-2.523210e-009
-3.200000000000038e+000	-3.200000e+000	-2.523201e-009
-3.190000000000039e+000	-3.190000e+000	-2.523191e-009
-3.180000000000039e+000	-3.180000e+000	-2.523180e-009
-3.170000000000039e+000	-3.170000e+000	-2.523170e-009
-3.160000000000039e+000	-3.160000e+000	-2.523160e-009
-3.150000000000039e+000	-3.149999e+000	-2.523151e-009
-3.140000000000040e+000	-3.139999e+000	-2.523141e-009
-3.130000000000040e+000	-3.129999e+000	-2.523130e-009
-3.120000000000040e+000	-3.119999e+000	-2.523120e-009
-3.110000000000040e+000	-3.109999e+000	-2.523110e-009
-3.100000000000041e+000	-3.099999e+000	-2.523101e-009
-3.090000000000041e+000	-3.089999e+000	-2.523090e-009
-3.080000000000041e+000	-3.079999e+000	-2.523080e-009
-3.070000000000041e+000	-3.069999e+000	-2.523070e-009
-3.060000000000041e+000	-3.059999e+000	-2.523061e-009
-3.050000000000042e+000	-3.049999e+000	-2.523051e-009
-3.040000000000042e+000	-3.039999e+000	-2.523040e-009
-3.030000000000042e+000	-3.029999e+000	-2.523030e-009
-3.020000000000042e+000	-3.020000e+000	-2.523020e-009
-3.010000000000042e+000	-3.010000e+000	-2.523011e-009
-3.000000000000043e+000	-3.000000e+000	-2.523001e-009
-2.990000000000043e+000	-2.990000e+000	-2.522990e-009
-2.980000000000043e+000	-2.980000e+000	-2.522980e-009
-2.970000000000043e+000	-2.970000e+000	-2.522970e-009
-2.960000000000044e+000	-2.960000e+000	-2.522961e-009
-2.950000000000044e+000	-2.950000e+000	-2.522951e-009
-2.940000000000044e+000	-2.940000e+000	-2.522940e-009
-2.930000000000044e+000	-2.930000e+000	-2.522930e-009
-2.920000000000044e+000	-2.920000e+000	-2.522920e-009
-2.910000000000045e+000	-2.910000e+000	-2.522911e-009
-2.900000000000045e+000	-2.899999e+000	-2.522901e-009
-2.890000000000045e+000	-2.889999e+000	-2.522890e-009
-2.880000000000045e+000	-2.879999e+000	-2.522880e-009
-2.870000000000045e+000	-2.869999e+000	-2.522870e-009
-2.860000000000046e+000	-2.859999e+000	-2.522861e-009
-2.850000000000046e+000	-2.849999e+000	-2.522850e-009
-2.840000000000046e+000	-2.839999e+000	-2.522840e-009
-2.830000000000046e+000	-2.829999e+000	-2.522830e-009
-2.820000000000047e+000	-2.819999e+000	-2.522820e-009
-2.810000000000047e+000	-2.809999e+000	-2.522811e-009
-2.800000000000047e+000	-2.799999e+000	-2.522800e-009
-2.790000000000047e+000	-2.789999e+000	-2.522790e-009
-2.780000000000047e+000	-2.779999e+000	-2.522780e-009
-2.770000000000048e+000	-2.770000e+000	-2.522771e-009
-2.760000000000048e+000	-2.760000e+000	-2.522761e-009
-2.750000000000048e+000	-2.750000e+000	-2.522750e-009
-2.740000000000048e+000	-2.740000e+000	-2.522740e-009
-2.730000000000048e+000	-2.730000e+000	-2.522730e-009
-2.720000000000049e+000	-2.720000e+000	-2.522721e-009
-2.710000000000049e+000	-2.710000e+000	-2.522710e-009
-2.700000000000049e+000	-2.700000e+000	-2.522700e-009
-2.690000000000049e+000	-2.690000e+000	-2.522690e-009
-2.680000000000050e+000	-2.680000e+000	-2.522680e-009
-2.670000000000050e+000	-2.670000e+000	-2.522671e-009
-2.660000000000050e+000	-2.660000e+000	-2.522661e-009
-2.650000000000050e+000	-2.649999e+000	-2.522650e-009
-2.640000000000050e+000	-2.639999e+000	-2.522640e-009
-2.630000000000051e+000	-2.629999e+000	-2.522630e-009
-2.620000000000051e+000	-2.619999e+000	-2.522621e-009
-2.610000000000051e+000	-2.609999e+000	-2.522610e-009
-2.600000000000051e+000	-2.599999e+000	-2.522600e-009
-2.590000000000051e+000	-2.589999e+000	-2.522590e-009
-2.580000000000052e+000	-2.579999e+000	-2.522580e-009
-2.570000000000052e+000	-2.569999e+000	-2.522571e-009
-2.560000000000052e+000	-2.559999e+000	-2.522560e-009
-2.550000000000052e+000	-2.549999e+000	-2.522550e-009
-2.540000000000052e+000	-2.539999e+000	-2.522540e-009
-2.530000000000053e+000	-2.529999e+000	-2.522531e-009
-2.520000000000053e+000	-2.520000e+000	-2.522521e-009
-2.510000000000053e+000	-2.510000e+000	-2.522510e-009
-2.500000000000053e+000	-2.500000e+000	-2.522500e-009
-2.490000000000054e+000	-2.490000e+000	-2.522490e-009
-2.480000000000054e+000	-2.480000e+000	-2.522481e-009
-2.470000000000054e+000	-2.470000e+000	-2.522470e-009
-2.460000000000054e+000	-2.460000e+000	-2.522460e-009
-2.450000000000054e+000	-2.450000e+000	-2.522450e-009
-2.440000000000055e+000	-2.440000e+000	-2.522440e-009
-2.430000000000055e+000	-2.430000e+000	-2.522431e-009
-2.420000000000055e+000	-2.420000e+000	-2.522420e-009
-2.410000000000055e+000	-2.410000e+000	-2.522410e-009
-2.400000000000055e+000	-2.399999e+000	-2.522400e-009
-2.390000000000056e+000	-2.389999e+000	-2.522390e-009
-2.380000000000056e+000	-2.379999e+000	-2.522381e-009
-2.370000000000056e+000	-2.369999e+000	-2.522370e-009
-2.360000000000056e+000	-2.359999e+000	-2.522360e-009
-2.350000000000057e+000	-2.349999e+000	-2.522350e-009
-2.340000000000057e+000	-2.339999e+000	-2.522340e-009
-2.330000000000057e+000	-2.329999e+000	-2.522331e-009
-2.320000000000057e+000	-2.319999e+000	-2.522320e-009
-2.310000000000057e+000	-2.309999e+000	-2.522310e-009
-2.300000000000058e+000	-2.299999e+000	-2.522300e-009
-2.290000000000058e+000	-2.289999e+000	-2.522290e-009
-2.280000000000058e+000	-2.279999e+000	-2.522281e-009
-2.270000000000058e+000	-2.270000e+000	-2.522270e-009
-2.260000000000058e+000	-2.260000e+000	-2.522260e-009
-2.250000000000059e+000	-2.250000e+000	-2.522250e-009
-2.240000000000059e+000	-2.240000e+000	-2.522241e-009
-2.230000000000059e+000	-2.230000e+000	-2.522230e-009
-2.220000000000059e+000	-2.220000e+000	-2.522220e-009
-2.210000000000060e+000	-2.210000e+000	-2.522210e-009
-2.200000000000060e+000	-2.200000e+000	-2.522200e-009
-2.190000000000060e+000	-2.190000e+000	-2.522191e-009
-2.180000000000060e+000	-2.180000e+000	-2.522180e-009
-2.170000000000060e+000	-2.170000e+000	-2.522170e-009
-2.160000000000061e+000	-2.160000e+000	-2.522160e-009
-2.150000000000061e+000	-2.149999e+000	-2.522150e-009
-2.140000000000061e+000	-2.139999e+000	-2.522140e-009
-2.130000000000061e+000	-2.129999e+000	-2.522130e-009
-2.120000000000061e+000	-2.119999e+000	-2.522120e-009
-2.110000000000062e+000	-2.109999e+000	-2.522110e-009
-2.100000000000062e+000	-2.099999e+000	-2.522100e-009
-2.090000000000062e+000	-2.089999e+000	-2.522091e-009
-2.080000000000062e+000	-2.079999e+000	-2.522080e-009
-2.070000000000063e+000	-2.069999e+000	-2.522070e-009
-2.060000000000063e+000	-2.059999e+000	-2.522060e-009
-2.050000000000063e+000	-2.049999e+000	-2.522050e-009
-2.040000000000063e+000	-2.039999e+000	-2.522041e-009
-2.030000000000063e+000	-2.029999e+000	-2.522030e-009
-2.020000000000064e+000	-2.020000e+000	-2.522020e-009
-2.010000000000064e+000	-2.010000e+000	-2.522010e-009
-2.000000000000064e+000	-2.000000e+000	-2.522000e-009
-1.990000000000064e+000	-1.990000e+000	-2.521990e-009
-1.980000000000064e+000	-1.980000e+000	-2.521980e-009
-1.970000000000064e+000	-1.970000e+000	-2.521970e-009
-1.960000000000064e+000	-1.959999e+000	-2.521960e-009
-1.950000000000064e+000	-1.949999e+000	-2.521950e-009
-1.940000000000064e+000	-1.939999e+000	-2.521940e-009
-1.930000000000064e+000	-1.929999e+000	-2.521930e-009
-1.920000000000064e+000	-1.919999e+000	-2.521920e-009
-1.910000000000064e+000	-1.909999e+000	-2.521910e-009
-1.900000000000064e+000	-1.899999e+000	-2.521900e-009
-1.890000000000064e+000	-1.890000e+000	-2.521890e-009
-1.880000000000064e+000	-1.880000e+000	-2.521880e-009
-1.870000000000064e+000	-1.870000e+000	-2.521870e-009
-1.860000000000064e+000	-1.860000e+000	-2.521860e-009
-1.850000000000064e+000	-1.850000e+000	-2.521850e-009
-1.840000000000064e+000	-1.839999e+000	-2.521840e-009
-1.830000000000064e+000	-1.829999e+000	-2.521830e-009
-1.820000000000064e+000	-1.819999e+000	-2.521820e-009
-1.810000000000064e+000	-1.809999e+000	-2.521810e-009
-1.800000000000064e+000	-1.799999e+000	-2.521800e-009
-1.790000000000064e+000	-1.789999e+000	-2.521790e-009
-1.780000000000064e+000	-1.779999e+000	-2.521780e-009
-1.770000000000064e+000	-1.770000e+000	-2.521770e-009
-1.760000000000064e+000	-1.760000e+000	-2.521760e-009
-1.750000000000064e+000	-1.750000e+000	-2.521750e-009
-1.740000000000064e+000	-1.740000e+000	-2.521740e-009
-1.730000000000064e+000	-1.730000e+000	-2.521730e-009
-1.720000000000064e+000	-1.720000e+000	-2.521720e-009
-1.710000000000064e+000	-1.709999e+000	-2.521710e-009
-1.700000000000064e+000	-1.699999e+000	-2.521700e-009
-1.690000000000064e+000	-1.689999e+000	-2.521690e-009
-1.680000000000064e+000	-1.679999e+000	-2.521680e-009
-1.670000000000064e+000	-1.669999e+000	-2.521670e-009
-1.660000000000064e+000	-1.659999e+000	-2.521660e-009
-1.650000000000064e+000	-1.649999e+000	-2.521650e-009
-1.640000000000064e+000	-1.640000e+000	-2.521640e-009
-1.630000000000064e+000	-1.630000e+000	-2.521630e-009
-1.620000000000064e+000	-1.620000e+000	-2.521620e-009
-1.610000000000064e+000	-1.610000e+000	-2.521610e-009
-1.600000000000064e+000	-1.600000e+000	-2.521600e-009
-1.590000000000064e+000	-1.589999e+000	-2.521590e-009
-1.580000000000064e+000	-1.579999e+000	-2.521580e-009
-1.570000000000064e+000	-1.569999e+000	-2.521570e-009
-1.560000000000064e+000	-1.559999e+000	-2.521560e-009
-1.550000000000064e+000	-1.549999e+000	-2.521550e-009
-1.540000000000064e+000	-1.539999e+000	-2.521540e-009
-1.530000000000064e+000	-1.529999e+000	-2.521530e-009
-1.520000000000064e+000	-1.520000e+000	-2.521520e-009
-1.510000000000064e+000	-1.510000e+000	-2.521510e-009
-1.500000000000064e+000	-1.500000e+000	-2.521500e-009
-1.490000000000064e+000	-1.490000e+000	-2.521490e-009
-1.480000000000064e+000	-1.480000e+000	-2.521480e-009
-1.470000000000064e+000	-1.470000e+000	-2.521470e-009
-1.460000000000064e+000	-1.459999e+000	-2.521460e-009
-1.450000000000064e+000	-1.449999e+000	-2.521450e-009
-1.440000000000064e+000	-1.439999e+000	-2.521440e-009
-1.430000000000063e+000	-1.429999e+000	-2.521430e-009
-1.420000000000063e+000	-1.419999e+000	-2.521420e-009
-1.410000000000063e+000	-1.409999e+000	-2.521410e-009
-1.400000000000063e+000	-1.399999e+000	-2.521400e-009
-1.390000000000063e+000	-1.390000e+000	-2.521390e-009
-1.380000000000063e+000	-1.380000e+000	-2.521380e-009
-1.370000000000063e+000	-1.370000e+000	-2.521370e-009
-1.360000000000063e+000	-1.360000e+000	-2.521360e-009
-1.350000000000063e+000	-1.350000e+000	-2.521350e-009
-1.340000000000063e+000	-1.339999e+000	-2.521340e-009
-1.330000000000063e+000	-1.329999e+000	-2.521330e-009
-1.320000000000063e+000	-1.319999e+000	-2.521320e-009
-1.310000000000063e+000	-1.309999e+000	-2.521310e-009
