Freq.	V(vo)
5.00000000000000e+003	(5.66960607168378e+001dB,-8.98709510233236e+001°)
5.02307895139198e+003	(5.66560610579983e+001dB,-8.98719540761917e+001°)
5.04626443038342e+003	(5.66160613955839e+001dB,-8.98729544135965e+001°)
5.06955692868340e+003	(5.65760617296234e+001dB,-8.98739520567516e+001°)
5.09295694027059e+003	(5.65360620601449e+001dB,-8.98749470268134e+001°)
5.11646496140377e+003	(5.64960623871767e+001dB,-8.98759393448817e+001°)
5.14008149063237e+003	(5.64560627107463e+001dB,-8.98769290320000e+001°)
5.16380702880699e+003	(5.64160630308813e+001dB,-8.98779161091560e+001°)
5.18764207909007e+003	(5.63760633476088e+001dB,-8.98789005972822e+001°)
5.21158714696652e+003	(5.63360636609557e+001dB,-8.98798825172560e+001°)
5.23564274025450e+003	(5.62960639709486e+001dB,-8.98808618899005e+001°)
5.25980936911612e+003	(5.62560642776138e+001dB,-8.98818387359848e+001°)
5.28408754606830e+003	(5.62160645809772e+001dB,-8.98828130762244e+001°)
5.30847778599363e+003	(5.61760648810646e+001dB,-8.98837849312816e+001°)
5.33298060615129e+003	(5.61360651779015e+001dB,-8.98847543217661e+001°)
5.35759652618804e+003	(5.60960654715130e+001dB,-8.98857212682353e+001°)
5.38232606814918e+003	(5.60560657619241e+001dB,-8.98866857911948e+001°)
5.40716975648969e+003	(5.60160660491594e+001dB,-8.98876479110988e+001°)
5.43212811808533e+003	(5.59760663332432e+001dB,-8.98886076483506e+001°)
5.45720168224379e+003	(5.59360666141997e+001dB,-8.98895650233030e+001°)
5.48239098071593e+003	(5.58960668920526e+001dB,-8.98905200562586e+001°)
5.50769654770708e+003	(5.58560671668257e+001dB,-8.98914727674704e+001°)
5.53311891988834e+003	(5.58160674385420e+001dB,-8.98924231771421e+001°)
5.55865863640796e+003	(5.57760677072248e+001dB,-8.98933713054289e+001°)
5.58431623890281e+003	(5.57360679728968e+001dB,-8.98943171724372e+001°)
5.61009227150982e+003	(5.56960682355806e+001dB,-8.98952607982258e+001°)
5.63598728087756e+003	(5.56560684952984e+001dB,-8.98962022028058e+001°)
5.66200181617779e+003	(5.56160687520722e+001dB,-8.98971414061412e+001°)
5.68813642911716e+003	(5.55760690059239e+001dB,-8.98980784281495e+001°)
5.71439167394887e+003	(5.55360692568749e+001dB,-8.98990132887018e+001°)
5.74076810748442e+003	(5.54960695049466e+001dB,-8.98999460076234e+001°)
5.76726628910547e+003	(5.54560697501600e+001dB,-8.99008766046941e+001°)
5.79388678077564e+003	(5.54160699925359e+001dB,-8.99018050996489e+001°)
5.82063014705247e+003	(5.53760702320949e+001dB,-8.99027315121782e+001°)
5.84749695509936e+003	(5.53360704688573e+001dB,-8.99036558619281e+001°)
5.87448777469766e+003	(5.52960707028431e+001dB,-8.99045781685010e+001°)
5.90160317825866e+003	(5.52560709340723e+001dB,-8.99054984514561e+001°)
5.92884374083581e+003	(5.52160711625644e+001dB,-8.99064167303097e+001°)
5.95621004013688e+003	(5.51760713883388e+001dB,-8.99073330245354e+001°)
5.98370265653623e+003	(5.51360716114147e+001dB,-8.99082473535649e+001°)
6.01132217308708e+003	(5.50960718318110e+001dB,-8.99091597367883e+001°)
6.03906917553391e+003	(5.50560720495463e+001dB,-8.99100701935541e+001°)
6.06694425232490e+003	(5.50160722646392e+001dB,-8.99109787431703e+001°)
6.09494799462435e+003	(5.49760724771080e+001dB,-8.99118854049044e+001°)
6.12308099632526e+003	(5.49360726869705e+001dB,-8.99127901979837e+001°)
6.15134385406192e+003	(5.48960728942448e+001dB,-8.99136931415961e+001°)
6.17973716722257e+003	(5.48560730989482e+001dB,-8.99145942548901e+001°)
6.20826153796207e+003	(5.48160733010982e+001dB,-8.99154935569756e+001°)
6.23691757121473e+003	(5.47760735007119e+001dB,-8.99163910669238e+001°)
6.26570587470710e+003	(5.47360736978063e+001dB,-8.99172868037682e+001°)
6.29462705897085e+003	(5.46960738923980e+001dB,-8.99181807865045e+001°)
6.32368173735578e+003	(5.46560740845037e+001dB,-8.99190730340914e+001°)
6.35287052604273e+003	(5.46160742741395e+001dB,-8.99199635654505e+001°)
6.38219404405674e+003	(5.45760744613216e+001dB,-8.99208523994674e+001°)
6.41165291328013e+003	(5.45360746460659e+001dB,-8.99217395549914e+001°)
6.44124775846569e+003	(5.44960748283880e+001dB,-8.99226250508364e+001°)
6.47097920724995e+003	(5.44560750083033e+001dB,-8.99235089057810e+001°)
6.50084789016647e+003	(5.44160751858273e+001dB,-8.99243911385690e+001°)
6.53085444065923e+003	(5.43760753609748e+001dB,-8.99252717679099e+001°)
6.56099949509604e+003	(5.43360755337608e+001dB,-8.99261508124792e+001°)
6.59128369278206e+003	(5.42960757041999e+001dB,-8.99270282909187e+001°)
6.62170767597335e+003	(5.42560758723066e+001dB,-8.99279042218370e+001°)
6.65227208989048e+003	(5.42160760380951e+001dB,-8.99287786238100e+001°)
6.68297758273224e+003	(5.41760762015796e+001dB,-8.99296515153811e+001°)
6.71382480568934e+003	(5.41360763627738e+001dB,-8.99305229150616e+001°)
6.74481441295829e+003	(5.40960765216915e+001dB,-8.99313928413314e+001°)
6.77594706175521e+003	(5.40560766783461e+001dB,-8.99322613126389e+001°)
6.80722341232978e+003	(5.40160768327509e+001dB,-8.99331283474018e+001°)
6.83864412797927e+003	(5.39760769849190e+001dB,-8.99339939640074e+001°)
6.87020987506260e+003	(5.39360771348634e+001dB,-8.99348581808126e+001°)
6.90192132301445e+003	(5.38960772825967e+001dB,-8.99357210161451e+001°)
6.93377914435947e+003	(5.38560774281315e+001dB,-8.99365824883029e+001°)
6.96578401472655e+003	(5.38160775714801e+001dB,-8.99374426155553e+001°)
6.99793661286312e+003	(5.37760777126547e+001dB,-8.99383014161431e+001°)
7.03023762064960e+003	(5.37360778516672e+001dB,-8.99391589082788e+001°)
7.06268772311380e+003	(5.36960779885295e+001dB,-8.99400151101474e+001°)
7.09528760844549e+003	(5.36560781232531e+001dB,-8.99408700399062e+001°)
7.12803796801097e+003	(5.36160782558496e+001dB,-8.99417237156860e+001°)
7.16093949636775e+003	(5.35760783863301e+001dB,-8.99425761555906e+001°)
7.19399289127926e+003	(5.35360785147056e+001dB,-8.99434273776977e+001°)
7.22719885372967e+003	(5.34960786409872e+001dB,-8.99442774000593e+001°)
7.26055808793875e+003	(5.34560787651855e+001dB,-8.99451262407019e+001°)
7.29407130137678e+003	(5.34160788873110e+001dB,-8.99459739176269e+001°)
7.32773920477959e+003	(5.33760790073742e+001dB,-8.99468204488110e+001°)
7.36156251216363e+003	(5.33360791253851e+001dB,-8.99476658522067e+001°)
7.39554194084107e+003	(5.32960792413538e+001dB,-8.99485101457425e+001°)
7.42967821143507e+003	(5.32560793552902e+001dB,-8.99493533473235e+001°)
7.46397204789502e+003	(5.32160794672038e+001dB,-8.99501954748315e+001°)
7.49842417751191e+003	(5.31760795771043e+001dB,-8.99510365461256e+001°)
7.53303533093375e+003	(5.31360796850009e+001dB,-8.99518765790424e+001°)
7.56780624218108e+003	(5.30960797909027e+001dB,-8.99527155913967e+001°)
7.60273764866252e+003	(5.30560798948188e+001dB,-8.99535536009815e+001°)
7.63783029119040e+003	(5.30160799967580e+001dB,-8.99543906255685e+001°)
7.67308491399651e+003	(5.29760800967289e+001dB,-8.99552266829086e+001°)
7.70850226474784e+003	(5.29360801947400e+001dB,-8.99560617907322e+001°)
7.74408309456245e+003	(5.28960802907996e+001dB,-8.99568959667495e+001°)
7.77982815802542e+003	(5.28560803849158e+001dB,-8.99577292286511e+001°)
7.81573821320481e+003	(5.28160804770968e+001dB,-8.99585615941080e+001°)
7.85181402166781e+003	(5.27760805673501e+001dB,-8.99593930807723e+001°)
7.88805634849679e+003	(5.27360806556836e+001dB,-8.99602237062774e+001°)
7.92446596230561e+003	(5.26960807421047e+001dB,-8.99610534882386e+001°)
7.96104363525590e+003	(5.26560808266208e+001dB,-8.99618824442531e+001°)
7.99779014307339e+003	(5.26160809092389e+001dB,-8.99627105919009e+001°)
8.03470626506443e+003	(5.25760809899662e+001dB,-8.99635379487444e+001°)
8.07179278413248e+003	(5.25360810688095e+001dB,-8.99643645323297e+001°)
8.10905048679470e+003	(5.24960811457754e+001dB,-8.99651903601861e+001°)
8.14648016319866e+003	(5.24560812208705e+001dB,-8.99660154498273e+001°)
8.18408260713909e+003	(5.24160812941012e+001dB,-8.99668398187509e+001°)
8.22185861607471e+003	(5.23760813654736e+001dB,-8.99676634844396e+001°)
8.25980899114513e+003	(5.23360814349939e+001dB,-8.99684864643609e+001°)
8.29793453718786e+003	(5.22960815026678e+001dB,-8.99693087759679e+001°)
8.33623606275537e+003	(5.22560815685013e+001dB,-8.99701304366995e+001°)
8.37471438013224e+003	(5.22160816324998e+001dB,-8.99709514639809e+001°)
8.41337030535239e+003	(5.21760816946688e+001dB,-8.99717718752238e+001°)
8.45220465821638e+003	(5.21360817550135e+001dB,-8.99725916878267e+001°)
8.49121826230878e+003	(5.20960818135391e+001dB,-8.99734109191755e+001°)
8.53041194501568e+003	(5.20560818702505e+001dB,-8.99742295866439e+001°)
8.56978653754219e+003	(5.20160819251526e+001dB,-8.99750477075935e+001°)
8.60934287493009e+003	(5.19760819782499e+001dB,-8.99758652993743e+001°)
8.64908179607557e+003	(5.19360820295471e+001dB,-8.99766823793253e+001°)
8.68900414374694e+003	(5.18960820790485e+001dB,-8.99774989647743e+001°)
8.72911076460258e+003	(5.18560821267582e+001dB,-8.99783150730388e+001°)
8.76940250920887e+003	(5.18160821726803e+001dB,-8.99791307214263e+001°)
8.80988023205821e+003	(5.17760822168187e+001dB,-8.99799459272344e+001°)
8.85054479158717e+003	(5.17360822591771e+001dB,-8.99807607077512e+001°)
8.89139705019468e+003	(5.16960822997592e+001dB,-8.99815750802561e+001°)
8.93243787426032e+003	(5.16560823385684e+001dB,-8.99823890620195e+001°)
8.97366813416270e+003	(5.16160823756079e+001dB,-8.99832026703038e+001°)
9.01508870429791e+003	(5.15760824108810e+001dB,-8.99840159223634e+001°)
9.05670046309808e+003	(5.15360824443905e+001dB,-8.99848288354450e+001°)
9.09850429304999e+003	(5.14960824761394e+001dB,-8.99856414267883e+001°)
9.14050108071378e+003	(5.14560825061304e+001dB,-8.99864537136261e+001°)
9.18269171674180e+003	(5.14160825343659e+001dB,-8.99872657131847e+001°)
9.22507709589744e+003	(5.13760825608484e+001dB,-8.99880774426844e+001°)
9.26765811707413e+003	(5.13360825855802e+001dB,-8.99888889193397e+001°)
9.31043568331441e+003	(5.12960826085632e+001dB,-8.99897001603598e+001°)
9.35341070182908e+003	(5.12560826297996e+001dB,-8.99905111829488e+001°)
9.39658408401642e+003	(5.12160826492910e+001dB,-8.99913220043063e+001°)
9.43995674548154e+003	(5.11760826670392e+001dB,-8.99921326416275e+001°)
9.48352960605581e+003	(5.11360826830456e+001dB,-8.99929431121039e+001°)
9.52730358981631e+003	(5.10960826973116e+001dB,-8.99937534329233e+001°)
9.57127962510551e+003	(5.10560827098384e+001dB,-8.99945636212702e+001°)
9.61545864455087e+003	(5.10160827206270e+001dB,-8.99953736943267e+001°)
9.65984158508470e+003	(5.09760827296785e+001dB,-8.99961836692720e+001°)
9.70442938796397e+003	(5.09360827369935e+001dB,-8.99969935632835e+001°)
9.74922299879031e+003	(5.08960827425726e+001dB,-8.99978033935368e+001°)
9.79422336753003e+003	(5.08560827464164e+001dB,-8.99986131772062e+001°)
9.83943144853431e+003	(5.08160827485252e+001dB,-8.99994229314648e+001°)
9.88484820055939e+003	(5.07760827488992e+001dB,-9.00002326734855e+001°)
9.93047458678694e+003	(5.07360827475383e+001dB,-9.00010424204406e+001°)
9.97631157484449e+003	(5.06960827444424e+001dB,-9.00018521895025e+001°)
1.00223601368259e+004	(5.06560827396114e+001dB,-9.00026619978441e+001°)
1.00686212493120e+004	(5.06160827330448e+001dB,-9.00034718626395e+001°)
1.01150958933914e+004	(5.05760827247420e+001dB,-9.00042818010633e+001°)
1.01617850546812e+004	(5.05360827147023e+001dB,-9.00050918302924e+001°)
1.02086897233477e+004	(5.04960827029249e+001dB,-9.00059019675050e+001°)
1.02558108941279e+004	(5.04560826894089e+001dB,-9.00067122298820e+001°)
1.03031495663501e+004	(5.04160826741529e+001dB,-9.00075226346069e+001°)
1.03507067439553e+004	(5.03760826571558e+001dB,-9.00083331988660e+001°)
1.03984834355186e+004	(5.03360826384160e+001dB,-9.00091439398491e+001°)
1.04464806542703e+004	(5.02960826179321e+001dB,-9.00099548747499e+001°)
1.04946994181177e+004	(5.02560825957023e+001dB,-9.00107660207659e+001°)
1.05431407496665e+004	(5.02160825717246e+001dB,-9.00115773950995e+001°)
1.05918056762426e+004	(5.01760825459971e+001dB,-9.00123890149574e+001°)
1.06406952299137e+004	(5.01360825185175e+001dB,-9.00132008975521e+001°)
1.06898104475113e+004	(5.00960824892836e+001dB,-9.00140130601012e+001°)
1.07391523706528e+004	(5.00560824582929e+001dB,-9.00148255198284e+001°)
1.07887220457634e+004	(5.00160824255427e+001dB,-9.00156382939638e+001°)
1.08385205240986e+004	(4.99760823910302e+001dB,-9.00164513997441e+001°)
1.08885488617659e+004	(4.99360823547525e+001dB,-9.00172648544129e+001°)
1.09388081197479e+004	(4.98960823167066e+001dB,-9.00180786752213e+001°)
1.09892993639242e+004	(4.98560822768893e+001dB,-9.00188928794283e+001°)
1.10400236650946e+004	(4.98160822352970e+001dB,-9.00197074843008e+001°)
1.10909820990012e+004	(4.97760821919264e+001dB,-9.00205225071144e+001°)
1.11421757463516e+004	(4.97360821467737e+001dB,-9.00213379651533e+001°)
1.11936056928418e+004	(4.96960820998351e+001dB,-9.00221538757112e+001°)
1.12452730291790e+004	(4.96560820511066e+001dB,-9.00229702560913e+001°)
1.12971788511050e+004	(4.96160820005841e+001dB,-9.00237871236067e+001°)
1.13493242594192e+004	(4.95760819482633e+001dB,-9.00246044955808e+001°)
1.14017103600022e+004	(4.95360818941398e+001dB,-9.00254223893480e+001°)
1.14543382638390e+004	(4.94960818382090e+001dB,-9.00262408222532e+001°)
1.15072090870427e+004	(4.94560817804661e+001dB,-9.00270598116534e+001°)
1.15603239508781e+004	(4.94160817209062e+001dB,-9.00278793749169e+001°)
1.16136839817857e+004	(4.93760816595242e+001dB,-9.00286995294243e+001°)
1.16672903114051e+004	(4.93360815963151e+001dB,-9.00295202925689e+001°)
1.17211440765997e+004	(4.92960815312733e+001dB,-9.00303416817567e+001°)
1.17752464194802e+004	(4.92560814643935e+001dB,-9.00311637144070e+001°)
1.18295984874289e+004	(4.92160813956699e+001dB,-9.00319864079529e+001°)
1.18842014331245e+004	(4.91760813250966e+001dB,-9.00328097798413e+001°)
1.19390564145660e+004	(4.91360812526678e+001dB,-9.00336338475337e+001°)
1.19941645950976e+004	(4.90960811783772e+001dB,-9.00344586285062e+001°)
1.20495271434331e+004	(4.90560811022185e+001dB,-9.00352841402501e+001°)
1.21051452336810e+004	(4.90160810241854e+001dB,-9.00361104002721e+001°)
1.21610200453692e+004	(4.89760809442711e+001dB,-9.00369374260949e+001°)
1.22171527634700e+004	(4.89360808624689e+001dB,-9.00377652352573e+001°)
1.22735445784253e+004	(4.88960807787719e+001dB,-9.00385938453149e+001°)
1.23301966861718e+004	(4.88560806931729e+001dB,-9.00394232738400e+001°)
1.23871102881666e+004	(4.88160806056648e+001dB,-9.00402535384225e+001°)
1.24442865914121e+004	(4.87760805162400e+001dB,-9.00410846566700e+001°)
1.25017268084823e+004	(4.87360804248910e+001dB,-9.00419166462081e+001°)
1.25594321575480e+004	(4.86960803316100e+001dB,-9.00427495246809e+001°)
1.26174038624030e+004	(4.86560802363891e+001dB,-9.00435833097513e+001°)
1.26756431524897e+004	(4.86160801392203e+001dB,-9.00444180191016e+001°)
1.27341512629254e+004	(4.85760800400953e+001dB,-9.00452536704336e+001°)
1.27929294345284e+004	(4.85360799390057e+001dB,-9.00460902814690e+001°)
1.28519789138445e+004	(4.84960798359429e+001dB,-9.00469278699499e+001°)
1.29113009531731e+004	(4.84560797308982e+001dB,-9.00477664536393e+001°)
1.29708968105942e+004	(4.84160796238626e+001dB,-9.00486060503209e+001°)
1.30307677499946e+004	(4.83760795148271e+001dB,-9.00494466778002e+001°)
1.30909150410951e+004	(4.83360794037825e+001dB,-9.00502883539046e+001°)
1.31513399594771e+004	(4.82960792907193e+001dB,-9.00511310964835e+001°)
1.32120437866099e+004	(4.82560791756279e+001dB,-9.00519749234091e+001°)
1.32730278098779e+004	(4.82160790584986e+001dB,-9.00528198525764e+001°)
1.33342933226076e+004	(4.81760789393214e+001dB,-9.00536659019039e+001°)
1.33958416240953e+004	(4.81360788180862e+001dB,-9.00545130893340e+001°)
1.34576740196347e+004	(4.80960786947827e+001dB,-9.00553614328328e+001°)
1.35197918205444e+004	(4.80560785694005e+001dB,-9.00562109503915e+001°)
1.35821963441956e+004	(4.80160784419289e+001dB,-9.00570616600257e+001°)
1.36448889140404e+004	(4.79760783123572e+001dB,-9.00579135797764e+001°)
1.37078708596396e+004	(4.79360781806743e+001dB,-9.00587667277104e+001°)
1.37711435166910e+004	(4.78960780468691e+001dB,-9.00596211219205e+001°)
1.38347082270577e+004	(4.78560779109301e+001dB,-9.00604767805258e+001°)
1.38985663387966e+004	(4.78160777728460e+001dB,-9.00613337216723e+001°)
1.39627192061869e+004	(4.77760776326049e+001dB,-9.00621919635332e+001°)
1.40271681897587e+004	(4.77360774901950e+001dB,-9.00630515243093e+001°)
1.40919146563224e+004	(4.76960773456041e+001dB,-9.00639124222293e+001°)
1.41569599789971e+004	(4.76560771988201e+001dB,-9.00647746755502e+001°)
1.42223055372398e+004	(4.76160770498305e+001dB,-9.00656383025579e+001°)
1.42879527168749e+004	(4.75760768986226e+001dB,-9.00665033215674e+001°)
1.43539029101236e+004	(4.75360767451836e+001dB,-9.00673697509230e+001°)
1.44201575156332e+004	(4.74960765895004e+001dB,-9.00682376089993e+001°)
1.44867179385068e+004	(4.74560764315600e+001dB,-9.00691069142007e+001°)
1.45535855903332e+004	(4.74160762713488e+001dB,-9.00699776849628e+001°)
1.46207618892169e+004	(4.73760761088534e+001dB,-9.00708499397518e+001°)
1.46882482598079e+004	(4.73360759440598e+001dB,-9.00717236970657e+001°)
1.47560461333321e+004	(4.72960757769542e+001dB,-9.00725989754342e+001°)
1.48241569476219e+004	(4.72560756075223e+001dB,-9.00734757934194e+001°)
1.48925821471461e+004	(4.72160754357498e+001dB,-9.00743541696158e+001°)
1.49613231830411e+004	(4.71760752616221e+001dB,-9.00752341226511e+001°)
1.50303815131414e+004	(4.71360750851245e+001dB,-9.00761156711865e+001°)
1.50997586020103e+004	(4.70960749062419e+001dB,-9.00769988339168e+001°)
1.51694559209716e+004	(4.70560747249592e+001dB,-9.00778836295713e+001°)
1.52394749481401e+004	(4.70160745412610e+001dB,-9.00787700769138e+001°)
1.53098171684536e+004	(4.69760743551318e+001dB,-9.00796581947430e+001°)
1.53804840737038e+004	(4.69360741665557e+001dB,-9.00805480018932e+001°)
1.54514771625682e+004	(4.68960739755167e+001dB,-9.00814395172344e+001°)
1.55227979406420e+004	(4.68560737819987e+001dB,-9.00823327596730e+001°)
1.55944479204699e+004	(4.68160735859852e+001dB,-9.00832277481517e+001°)
1.56664286215781e+004	(4.67760733874596e+001dB,-9.00841245016506e+001°)
1.57387415705068e+004	(4.67360731864051e+001dB,-9.00850230391869e+001°)
1.58113883008421e+004	(4.66960729828045e+001dB,-9.00859233798157e+001°)
1.58843703532491e+004	(4.66560727766407e+001dB,-9.00868255426306e+001°)
1.59576892755040e+004	(4.66160725678962e+001dB,-9.00877295467635e+001°)
1.60313466225276e+004	(4.65760723565531e+001dB,-9.00886354113855e+001°)
1.61053439564174e+004	(4.65360721425937e+001dB,-9.00895431557071e+001°)
1.61796828464816e+004	(4.64960719259997e+001dB,-9.00904527989787e+001°)
1.62543648692720e+004	(4.64560717067528e+001dB,-9.00913643604909e+001°)
1.63293916086170e+004	(4.64160714848343e+001dB,-9.00922778595749e+001°)
1.64047646556562e+004	(4.63760712602256e+001dB,-9.00931933156033e+001°)
1.64804856088731e+004	(4.63360710329074e+001dB,-9.00941107479899e+001°)
1.65565560741298e+004	(4.62960708028606e+001dB,-9.00950301761904e+001°)
1.66329776647005e+004	(4.62560705700655e+001dB,-9.00959516197031e+001°)
1.67097520013060e+004	(4.62160703345025e+001dB,-9.00968750980686e+001°)
1.67868807121480e+004	(4.61760700961516e+001dB,-9.00978006308710e+001°)
1.68643654329437e+004	(4.61360698549926e+001dB,-9.00987282377377e+001°)
1.69422078069604e+004	(4.60960696110049e+001dB,-9.00996579383404e+001°)
1.70204094850503e+004	(4.60560693641680e+001dB,-9.01005897523949e+001°)
1.70989721256857e+004	(4.60160691144608e+001dB,-9.01015236996620e+001°)
1.71778973949940e+004	(4.59760688618622e+001dB,-9.01024597999475e+001°)
1.72571869667931e+004	(4.59360686063507e+001dB,-9.01033980731031e+001°)
1.73368425226268e+004	(4.58960683479047e+001dB,-9.01043385390264e+001°)
1.74168657518009e+004	(4.58560680865023e+001dB,-9.01052812176616e+001°)
1.74972583514181e+004	(4.58160678221213e+001dB,-9.01062261289997e+001°)
1.75780220264152e+004	(4.57760675547392e+001dB,-9.01071732930792e+001°)
1.76591584895981e+004	(4.57360672843333e+001dB,-9.01081227299862e+001°)
1.77406694616791e+004	(4.56960670108808e+001dB,-9.01090744598551e+001°)
1.78225566713125e+004	(4.56560667343585e+001dB,-9.01100285028689e+001°)
