Freq.	V(vo)	V(n004)
5.00000000000000e+003	(-1.64796264981162e+001dB,-8.37342045287554e-001°)	(-3.64781748188864e+001dB,0.00000000000000e+000°)
5.02307895139198e+003	(-1.64796341674536e+001dB,-8.41206574843857e-001°)	(-3.64781748188864e+001dB,0.00000000000000e+000°)
5.04626443038342e+003	(-1.64796419077409e+001dB,-8.45088935780367e-001°)	(-3.64781748188864e+001dB,0.00000000000000e+000°)
5.06955692868340e+003	(-1.64796497196343e+001dB,-8.48989210312898e-001°)	(-3.64781748188864e+001dB,0.00000000000000e+000°)
5.09295694027059e+003	(-1.64796576037961e+001dB,-8.52907481035510e-001°)	(-3.64781748188864e+001dB,0.00000000000000e+000°)
5.11646496140377e+003	(-1.64796655608948e+001dB,-8.56843830922230e-001°)	(-3.64781748188864e+001dB,0.00000000000000e+000°)
5.14008149063237e+003	(-1.64796735916049e+001dB,-8.60798343328782e-001°)	(-3.64781748188864e+001dB,0.00000000000000e+000°)
5.16380702880699e+003	(-1.64796816966073e+001dB,-8.64771101994344e-001°)	(-3.64781748188864e+001dB,0.00000000000000e+000°)
5.18764207909007e+003	(-1.64796898765891e+001dB,-8.68762191043289e-001°)	(-3.64781748188864e+001dB,0.00000000000000e+000°)
5.21158714696652e+003	(-1.64796981322439e+001dB,-8.72771694986949e-001°)	(-3.64781748188864e+001dB,0.00000000000000e+000°)
5.23564274025450e+003	(-1.64797064642715e+001dB,-8.76799698725382e-001°)	(-3.64781748188864e+001dB,0.00000000000000e+000°)
5.25980936911612e+003	(-1.64797148733783e+001dB,-8.80846287549142e-001°)	(-3.64781748188864e+001dB,0.00000000000000e+000°)
5.28408754606830e+003	(-1.64797233602772e+001dB,-8.84911547141073e-001°)	(-3.64781748188864e+001dB,0.00000000000000e+000°)
5.30847778599363e+003	(-1.64797319256878e+001dB,-8.88995563578098e-001°)	(-3.64781748188864e+001dB,0.00000000000000e+000°)
5.33298060615129e+003	(-1.64797405703361e+001dB,-8.93098423333005e-001°)	(-3.64781748188864e+001dB,0.00000000000000e+000°)
5.35759652618804e+003	(-1.64797492949550e+001dB,-8.97220213276271e-001°)	(-3.64781748188864e+001dB,0.00000000000000e+000°)
5.38232606814918e+003	(-1.64797581002842e+001dB,-9.01361020677865e-001°)	(-3.64781748188864e+001dB,0.00000000000000e+000°)
5.40716975648969e+003	(-1.64797669870701e+001dB,-9.05520933209086e-001°)	(-3.64781748188864e+001dB,0.00000000000000e+000°)
5.43212811808533e+003	(-1.64797759560662e+001dB,-9.09700038944375e-001°)	(-3.64781748188864e+001dB,0.00000000000000e+000°)
5.45720168224379e+003	(-1.64797850080326e+001dB,-9.13898426363175e-001°)	(-3.64781748188864e+001dB,0.00000000000000e+000°)
5.48239098071593e+003	(-1.64797941437369e+001dB,-9.18116184351755e-001°)	(-3.64781748188864e+001dB,0.00000000000000e+000°)
5.50769654770708e+003	(-1.64798033639535e+001dB,-9.22353402205098e-001°)	(-3.64781748188864e+001dB,0.00000000000000e+000°)
5.53311891988834e+003	(-1.64798126694640e+001dB,-9.26610169628735e-001°)	(-3.64781748188864e+001dB,0.00000000000000e+000°)
5.55865863640796e+003	(-1.64798220610573e+001dB,-9.30886576740638e-001°)	(-3.64781748188864e+001dB,0.00000000000000e+000°)
5.58431623890281e+003	(-1.64798315395294e+001dB,-9.35182714073087e-001°)	(-3.64781748188864e+001dB,0.00000000000000e+000°)
5.61009227150982e+003	(-1.64798411056839e+001dB,-9.39498672574570e-001°)	(-3.64781748188864e+001dB,0.00000000000000e+000°)
5.63598728087756e+003	(-1.64798507603318e+001dB,-9.43834543611675e-001°)	(-3.64781748188864e+001dB,0.00000000000000e+000°)
5.66200181617779e+003	(-1.64798605042914e+001dB,-9.48190418971001e-001°)	(-3.64781748188864e+001dB,0.00000000000000e+000°)
5.68813642911716e+003	(-1.64798703383888e+001dB,-9.52566390861069e-001°)	(-3.64781748188864e+001dB,0.00000000000000e+000°)
5.71439167394887e+003	(-1.64798802634575e+001dB,-9.56962551914242e-001°)	(-3.64781748188864e+001dB,0.00000000000000e+000°)
5.74076810748442e+003	(-1.64798902803389e+001dB,-9.61378995188665e-001°)	(-3.64781748188864e+001dB,0.00000000000000e+000°)
5.76726628910547e+003	(-1.64799003898821e+001dB,-9.65815814170201e-001°)	(-3.64781748188864e+001dB,0.00000000000000e+000°)
5.79388678077564e+003	(-1.64799105929441e+001dB,-9.70273102774378e-001°)	(-3.64781748188864e+001dB,0.00000000000000e+000°)
5.82063014705247e+003	(-1.64799208903897e+001dB,-9.74750955348355e-001°)	(-3.64781748188864e+001dB,0.00000000000000e+000°)
5.84749695509936e+003	(-1.64799312830918e+001dB,-9.79249466672872e-001°)	(-3.64781748188864e+001dB,0.00000000000000e+000°)
5.87448777469766e+003	(-1.64799417719314e+001dB,-9.83768731964245e-001°)	(-3.64781748188864e+001dB,0.00000000000000e+000°)
5.90160317825866e+003	(-1.64799523577975e+001dB,-9.88308846876333e-001°)	(-3.64781748188864e+001dB,0.00000000000000e+000°)
5.92884374083581e+003	(-1.64799630415875e+001dB,-9.92869907502543e-001°)	(-3.64781748188864e+001dB,0.00000000000000e+000°)
5.95621004013688e+003	(-1.64799738242068e+001dB,-9.97452010377822e-001°)	(-3.64781748188864e+001dB,0.00000000000000e+000°)
5.98370265653623e+003	(-1.64799847065696e+001dB,-1.00205525248067e+000°)	(-3.64781748188864e+001dB,0.00000000000000e+000°)
6.01132217308708e+003	(-1.64799956895982e+001dB,-1.00667973123517e+000°)	(-3.64781748188864e+001dB,0.00000000000000e+000°)
6.03906917553391e+003	(-1.64800067742235e+001dB,-1.01132554451300e+000°)	(-3.64781748188864e+001dB,0.00000000000000e+000°)
6.06694425232490e+003	(-1.64800179613852e+001dB,-1.01599279063547e+000°)	(-3.64781748188864e+001dB,0.00000000000000e+000°)
6.09494799462435e+003	(-1.64800292520313e+001dB,-1.02068156837558e+000°)	(-3.64781748188864e+001dB,0.00000000000000e+000°)
6.12308099632526e+003	(-1.64800406471190e+001dB,-1.02539197696007e+000°)	(-3.64781748188864e+001dB,0.00000000000000e+000°)
6.15134385406192e+003	(-1.64800521476140e+001dB,-1.03012411607148e+000°)	(-3.64781748188864e+001dB,0.00000000000000e+000°)
6.17973716722257e+003	(-1.64800637544911e+001dB,-1.03487808585024e+000°)	(-3.64781748188864e+001dB,0.00000000000000e+000°)
6.20826153796207e+003	(-1.64800754687341e+001dB,-1.03965398689672e+000°)	(-3.64781748188864e+001dB,0.00000000000000e+000°)
6.23691757121473e+003	(-1.64800872913359e+001dB,-1.04445192027336e+000°)	(-3.64781748188864e+001dB,0.00000000000000e+000°)
6.26570587470710e+003	(-1.64800992232984e+001dB,-1.04927198750673e+000°)	(-3.64781748188864e+001dB,0.00000000000000e+000°)
6.29462705897085e+003	(-1.64801112656330e+001dB,-1.05411429058968e+000°)	(-3.64781748188864e+001dB,0.00000000000000e+000°)
6.32368173735578e+003	(-1.64801234193604e+001dB,-1.05897893198343e+000°)	(-3.64781748188864e+001dB,0.00000000000000e+000°)
6.35287052604273e+003	(-1.64801356855105e+001dB,-1.06386601461972e+000°)	(-3.64781748188864e+001dB,0.00000000000000e+000°)
6.38219404405674e+003	(-1.64801480651231e+001dB,-1.06877564190293e+000°)	(-3.64781748188864e+001dB,0.00000000000000e+000°)
6.41165291328013e+003	(-1.64801605592473e+001dB,-1.07370791771222e+000°)	(-3.64781748188864e+001dB,0.00000000000000e+000°)
6.44124775846569e+003	(-1.64801731689420e+001dB,-1.07866294640374e+000°)	(-3.64781748188864e+001dB,0.00000000000000e+000°)
6.47097920724995e+003	(-1.64801858952760e+001dB,-1.08364083281273e+000°)	(-3.64781748188864e+001dB,0.00000000000000e+000°)
6.50084789016647e+003	(-1.64801987393277e+001dB,-1.08864168225572e+000°)	(-3.64781748188864e+001dB,0.00000000000000e+000°)
6.53085444065923e+003	(-1.64802117021857e+001dB,-1.09366560053274e+000°)	(-3.64781748188864e+001dB,0.00000000000000e+000°)
6.56099949509604e+003	(-1.64802247849486e+001dB,-1.09871269392948e+000°)	(-3.64781748188864e+001dB,0.00000000000000e+000°)
6.59128369278206e+003	(-1.64802379887252e+001dB,-1.10378306921951e+000°)	(-3.64781748188864e+001dB,0.00000000000000e+000°)
6.62170767597335e+003	(-1.64802513146343e+001dB,-1.10887683366650e+000°)	(-3.64781748188864e+001dB,0.00000000000000e+000°)
6.65227208989048e+003	(-1.64802647638055e+001dB,-1.11399409502643e+000°)	(-3.64781748188864e+001dB,0.00000000000000e+000°)
6.68297758273224e+003	(-1.64802783373783e+001dB,-1.11913496154983e+000°)	(-3.64781748188864e+001dB,0.00000000000000e+000°)
6.71382480568934e+003	(-1.64802920365032e+001dB,-1.12429954198402e+000°)	(-3.64781748188864e+001dB,0.00000000000000e+000°)
6.74481441295829e+003	(-1.64803058623410e+001dB,-1.12948794557540e+000°)	(-3.64781748188864e+001dB,0.00000000000000e+000°)
6.77594706175521e+003	(-1.64803198160634e+001dB,-1.13470028207163e+000°)	(-3.64781748188864e+001dB,0.00000000000000e+000°)
6.80722341232978e+003	(-1.64803338988528e+001dB,-1.13993666172399e+000°)	(-3.64781748188864e+001dB,0.00000000000000e+000°)
6.83864412797927e+003	(-1.64803481119027e+001dB,-1.14519719528962e+000°)	(-3.64781748188864e+001dB,0.00000000000000e+000°)
6.87020987506260e+003	(-1.64803624564176e+001dB,-1.15048199403380e+000°)	(-3.64781748188864e+001dB,0.00000000000000e+000°)
6.90192132301445e+003	(-1.64803769336129e+001dB,-1.15579116973230e+000°)	(-3.64781748188864e+001dB,0.00000000000000e+000°)
6.93377914435947e+003	(-1.64803915447154e+001dB,-1.16112483467364e+000°)	(-3.64781748188864e+001dB,0.00000000000000e+000°)
6.96578401472655e+003	(-1.64804062909634e+001dB,-1.16648310166146e+000°)	(-3.64781748188864e+001dB,0.00000000000000e+000°)
6.99793661286312e+003	(-1.64804211736062e+001dB,-1.17186608401681e+000°)	(-3.64781748188864e+001dB,0.00000000000000e+000°)
7.03023762064960e+003	(-1.64804361939052e+001dB,-1.17727389558054e+000°)	(-3.64781748188864e+001dB,0.00000000000000e+000°)
7.06268772311380e+003	(-1.64804513531329e+001dB,-1.18270665071560e+000°)	(-3.64781748188864e+001dB,0.00000000000000e+000°)
7.09528760844549e+003	(-1.64804666525740e+001dB,-1.18816446430945e+000°)	(-3.64781748188864e+001dB,0.00000000000000e+000°)
7.12803796801097e+003	(-1.64804820935248e+001dB,-1.19364745177641e+000°)	(-3.64781748188864e+001dB,0.00000000000000e+000°)
7.16093949636775e+003	(-1.64804976772937e+001dB,-1.19915572906004e+000°)	(-3.64781748188864e+001dB,0.00000000000000e+000°)
7.19399289127926e+003	(-1.64805134052012e+001dB,-1.20468941263557e+000°)	(-3.64781748188864e+001dB,0.00000000000000e+000°)
7.22719885372967e+003	(-1.64805292785798e+001dB,-1.21024861951225e+000°)	(-3.64781748188864e+001dB,0.00000000000000e+000°)
7.26055808793875e+003	(-1.64805452987746e+001dB,-1.21583346723582e+000°)	(-3.64781748188864e+001dB,0.00000000000000e+000°)
7.29407130137678e+003	(-1.64805614671429e+001dB,-1.22144407389089e+000°)	(-3.64781748188864e+001dB,0.00000000000000e+000°)
7.32773920477959e+003	(-1.64805777850547e+001dB,-1.22708055810340e+000°)	(-3.64781748188864e+001dB,0.00000000000000e+000°)
7.36156251216363e+003	(-1.64805942538926e+001dB,-1.23274303904308e+000°)	(-3.64781748188864e+001dB,0.00000000000000e+000°)
7.39554194084107e+003	(-1.64806108750519e+001dB,-1.23843163642587e+000°)	(-3.64781748188864e+001dB,0.00000000000000e+000°)
7.42967821143507e+003	(-1.64806276499408e+001dB,-1.24414647051643e+000°)	(-3.64781748188864e+001dB,0.00000000000000e+000°)
7.46397204789502e+003	(-1.64806445799806e+001dB,-1.24988766213057e+000°)	(-3.64781748188864e+001dB,0.00000000000000e+000°)
7.49842417751191e+003	(-1.64806616666057e+001dB,-1.25565533263780e+000°)	(-3.64781748188864e+001dB,0.00000000000000e+000°)
7.53303533093375e+003	(-1.64806789112638e+001dB,-1.26144960396377e+000°)	(-3.64781748188864e+001dB,0.00000000000000e+000°)
7.56780624218108e+003	(-1.64806963154157e+001dB,-1.26727059859283e+000°)	(-3.64781748188864e+001dB,0.00000000000000e+000°)
7.60273764866252e+003	(-1.64807138805361e+001dB,-1.27311843957051e+000°)	(-3.64781748188864e+001dB,0.00000000000000e+000°)
7.63783029119040e+003	(-1.64807316081130e+001dB,-1.27899325050610e+000°)	(-3.64781748188864e+001dB,0.00000000000000e+000°)
7.67308491399651e+003	(-1.64807494996483e+001dB,-1.28489515557513e+000°)	(-3.64781748188864e+001dB,0.00000000000000e+000°)
7.70850226474784e+003	(-1.64807675566578e+001dB,-1.29082427952199e+000°)	(-3.64781748188864e+001dB,0.00000000000000e+000°)
7.74408309456245e+003	(-1.64807857806711e+001dB,-1.29678074766245e+000°)	(-3.64781748188864e+001dB,0.00000000000000e+000°)
7.77982815802542e+003	(-1.64808041732321e+001dB,-1.30276468588626e+000°)	(-3.64781748188864e+001dB,0.00000000000000e+000°)
7.81573821320481e+003	(-1.64808227358991e+001dB,-1.30877622065973e+000°)	(-3.64781748188864e+001dB,0.00000000000000e+000°)
7.85181402166781e+003	(-1.64808414702443e+001dB,-1.31481547902832e+000°)	(-3.64781748188864e+001dB,0.00000000000000e+000°)
7.88805634849679e+003	(-1.64808603778550e+001dB,-1.32088258861927e+000°)	(-3.64781748188864e+001dB,0.00000000000000e+000°)
7.92446596230561e+003	(-1.64808794603328e+001dB,-1.32697767764420e+000°)	(-3.64781748188864e+001dB,0.00000000000000e+000°)
7.96104363525590e+003	(-1.64808987192941e+001dB,-1.33310087490176e+000°)	(-3.64781748188864e+001dB,0.00000000000000e+000°)
7.99779014307339e+003	(-1.64809181563705e+001dB,-1.33925230978024e+000°)	(-3.64781748188864e+001dB,0.00000000000000e+000°)
8.03470626506443e+003	(-1.64809377732083e+001dB,-1.34543211226028e+000°)	(-3.64781748188864e+001dB,0.00000000000000e+000°)
8.07179278413248e+003	(-1.64809575714692e+001dB,-1.35164041291748e+000°)	(-3.64781748188864e+001dB,0.00000000000000e+000°)
8.10905048679470e+003	(-1.64809775528304e+001dB,-1.35787734292511e+000°)	(-3.64781748188864e+001dB,0.00000000000000e+000°)
8.14648016319866e+003	(-1.64809977189843e+001dB,-1.36414303405680e+000°)	(-3.64781748188864e+001dB,0.00000000000000e+000°)
8.18408260713909e+003	(-1.64810180716390e+001dB,-1.37043761868921e+000°)	(-3.64781748188864e+001dB,0.00000000000000e+000°)
8.22185861607471e+003	(-1.64810386125185e+001dB,-1.37676122980477e+000°)	(-3.64781748188864e+001dB,0.00000000000000e+000°)
8.25980899114513e+003	(-1.64810593433627e+001dB,-1.38311400099441e+000°)	(-3.64781748188864e+001dB,0.00000000000000e+000°)
8.29793453718786e+003	(-1.64810802659273e+001dB,-1.38949606646025e+000°)	(-3.64781748188864e+001dB,0.00000000000000e+000°)
8.33623606275537e+003	(-1.64811013819846e+001dB,-1.39590756101840e+000°)	(-3.64781748188864e+001dB,0.00000000000000e+000°)
8.37471438013224e+003	(-1.64811226933229e+001dB,-1.40234862010167e+000°)	(-3.64781748188864e+001dB,0.00000000000000e+000°)
8.41337030535239e+003	(-1.64811442017474e+001dB,-1.40881937976240e+000°)	(-3.64781748188864e+001dB,0.00000000000000e+000°)
8.45220465821638e+003	(-1.64811659090797e+001dB,-1.41531997667515e+000°)	(-3.64781748188864e+001dB,0.00000000000000e+000°)
8.49121826230878e+003	(-1.64811878171581e+001dB,-1.42185054813959e+000°)	(-3.64781748188864e+001dB,0.00000000000000e+000°)
8.53041194501568e+003	(-1.64812099278383e+001dB,-1.42841123208325e+000°)	(-3.64781748188864e+001dB,0.00000000000000e+000°)
8.56978653754219e+003	(-1.64812322429928e+001dB,-1.43500216706433e+000°)	(-3.64781748188864e+001dB,0.00000000000000e+000°)
8.60934287493009e+003	(-1.64812547645114e+001dB,-1.44162349227458e+000°)	(-3.64781748188864e+001dB,0.00000000000000e+000°)
8.64908179607557e+003	(-1.64812774943015e+001dB,-1.44827534754207e+000°)	(-3.64781748188864e+001dB,0.00000000000000e+000°)
8.68900414374694e+003	(-1.64813004342879e+001dB,-1.45495787333410e+000°)	(-3.64781748188864e+001dB,0.00000000000000e+000°)
8.72911076460258e+003	(-1.64813235864135e+001dB,-1.46167121076005e+000°)	(-3.64781748188864e+001dB,0.00000000000000e+000°)
8.76940250920887e+003	(-1.64813469526388e+001dB,-1.46841550157423e+000°)	(-3.64781748188864e+001dB,0.00000000000000e+000°)
8.80988023205821e+003	(-1.64813705349425e+001dB,-1.47519088817880e+000°)	(-3.64781748188864e+001dB,0.00000000000000e+000°)
8.85054479158717e+003	(-1.64813943353217e+001dB,-1.48199751362665e+000°)	(-3.64781748188864e+001dB,0.00000000000000e+000°)
8.89139705019468e+003	(-1.64814183557918e+001dB,-1.48883552162432e+000°)	(-3.64781748188864e+001dB,0.00000000000000e+000°)
8.93243787426032e+003	(-1.64814425983869e+001dB,-1.49570505653494e+000°)	(-3.64781748188864e+001dB,0.00000000000000e+000°)
8.97366813416270e+003	(-1.64814670651596e+001dB,-1.50260626338115e+000°)	(-3.64781748188864e+001dB,0.00000000000000e+000°)
9.01508870429791e+003	(-1.64814917581818e+001dB,-1.50953928784803e+000°)	(-3.64781748188864e+001dB,0.00000000000000e+000°)
9.05670046309808e+003	(-1.64815166795445e+001dB,-1.51650427628612e+000°)	(-3.64781748188864e+001dB,0.00000000000000e+000°)
9.09850429304999e+003	(-1.64815418313576e+001dB,-1.52350137571431e+000°)	(-3.64781748188864e+001dB,0.00000000000000e+000°)
9.14050108071378e+003	(-1.64815672157510e+001dB,-1.53053073382292e+000°)	(-3.64781748188864e+001dB,0.00000000000000e+000°)
9.18269171674180e+003	(-1.64815928348740e+001dB,-1.53759249897662e+000°)	(-3.64781748188864e+001dB,0.00000000000000e+000°)
9.22507709589744e+003	(-1.64816186908956e+001dB,-1.54468682021749e+000°)	(-3.64781748188864e+001dB,0.00000000000000e+000°)
9.26765811707413e+003	(-1.64816447860050e+001dB,-1.55181384726803e+000°)	(-3.64781748188864e+001dB,0.00000000000000e+000°)
9.31043568331441e+003	(-1.64816711224117e+001dB,-1.55897373053418e+000°)	(-3.64781748188864e+001dB,0.00000000000000e+000°)
9.35341070182908e+003	(-1.64816977023454e+001dB,-1.56616662110840e+000°)	(-3.64781748188864e+001dB,0.00000000000000e+000°)
9.39658408401642e+003	(-1.64817245280564e+001dB,-1.57339267077268e+000°)	(-3.64781748188864e+001dB,0.00000000000000e+000°)
9.43995674548154e+003	(-1.64817516018158e+001dB,-1.58065203200169e+000°)	(-3.64781748188864e+001dB,0.00000000000000e+000°)
9.48352960605581e+003	(-1.64817789259157e+001dB,-1.58794485796579e+000°)	(-3.64781748188864e+001dB,0.00000000000000e+000°)
9.52730358981631e+003	(-1.64818065026694e+001dB,-1.59527130253418e+000°)	(-3.64781748188864e+001dB,0.00000000000000e+000°)
9.57127962510551e+003	(-1.64818343344113e+001dB,-1.60263152027800e+000°)	(-3.64781748188864e+001dB,0.00000000000000e+000°)
9.61545864455087e+003	(-1.64818624234976e+001dB,-1.61002566647343e+000°)	(-3.64781748188864e+001dB,0.00000000000000e+000°)
9.65984158508470e+003	(-1.64818907723061e+001dB,-1.61745389710488e+000°)	(-3.64781748188864e+001dB,0.00000000000000e+000°)
9.70442938796397e+003	(-1.64819193832366e+001dB,-1.62491636886806e+000°)	(-3.64781748188864e+001dB,0.00000000000000e+000°)
9.74922299879031e+003	(-1.64819482587111e+001dB,-1.63241323917325e+000°)	(-3.64781748188864e+001dB,0.00000000000000e+000°)
9.79422336753003e+003	(-1.64819774011737e+001dB,-1.63994466614838e+000°)	(-3.64781748188864e+001dB,0.00000000000000e+000°)
9.83943144853431e+003	(-1.64820068130914e+001dB,-1.64751080864227e+000°)	(-3.64781748188864e+001dB,0.00000000000000e+000°)
9.88484820055939e+003	(-1.64820364969536e+001dB,-1.65511182622781e+000°)	(-3.64781748188864e+001dB,0.00000000000000e+000°)
9.93047458678694e+003	(-1.64820664552730e+001dB,-1.66274787920521e+000°)	(-3.64781748188864e+001dB,0.00000000000000e+000°)
9.97631157484449e+003	(-1.64820966905853e+001dB,-1.67041912860519e+000°)	(-3.64781748188864e+001dB,0.00000000000000e+000°)
1.00223601368259e+004	(-1.64821272054495e+001dB,-1.67812573619223e+000°)	(-3.64781748188864e+001dB,0.00000000000000e+000°)
1.00686212493120e+004	(-1.64821580024485e+001dB,-1.68586786446784e+000°)	(-3.64781748188864e+001dB,0.00000000000000e+000°)
1.01150958933914e+004	(-1.64821890841887e+001dB,-1.69364567667382e+000°)	(-3.64781748188864e+001dB,0.00000000000000e+000°)
1.01617850546812e+004	(-1.64822204533008e+001dB,-1.70145933679554e+000°)	(-3.64781748188864e+001dB,0.00000000000000e+000°)
1.02086897233477e+004	(-1.64822521124396e+001dB,-1.70930900956524e+000°)	(-3.64781748188864e+001dB,0.00000000000000e+000°)
1.02558108941279e+004	(-1.64822840642844e+001dB,-1.71719486046531e+000°)	(-3.64781748188864e+001dB,0.00000000000000e+000°)
1.03031495663501e+004	(-1.64823163115394e+001dB,-1.72511705573168e+000°)	(-3.64781748188864e+001dB,0.00000000000000e+000°)
1.03507067439553e+004	(-1.64823488569335e+001dB,-1.73307576235706e+000°)	(-3.64781748188864e+001dB,0.00000000000000e+000°)
1.03984834355186e+004	(-1.64823817032209e+001dB,-1.74107114809436e+000°)	(-3.64781748188864e+001dB,0.00000000000000e+000°)
1.04464806542703e+004	(-1.64824148531812e+001dB,-1.74910338146004e+000°)	(-3.64781748188864e+001dB,0.00000000000000e+000°)
1.04946994181177e+004	(-1.64824483096195e+001dB,-1.75717263173744e+000°)	(-3.64781748188864e+001dB,0.00000000000000e+000°)
