vi	V(vd1)	V(vo)	I(Red)
-1.000000000000000e+001	-3.224998e-008	-1.347791e+001	-1.348791e-011
-9.990000000000000e+000	-3.224529e-008	-1.347791e+001	-1.348791e-011
-9.980000000000000e+000	-3.224060e-008	-1.347791e+001	-1.348791e-011
-9.970000000000001e+000	-3.223591e-008	-1.347791e+001	-1.348791e-011
-9.960000000000001e+000	-3.223122e-008	-1.347790e+001	-1.348790e-011
-9.950000000000001e+000	-3.222653e-008	-1.347790e+001	-1.348790e-011
-9.940000000000001e+000	-3.222184e-008	-1.347790e+001	-1.348790e-011
-9.930000000000002e+000	-3.221715e-008	-1.347790e+001	-1.348790e-011
-9.920000000000002e+000	-3.221245e-008	-1.347790e+001	-1.348790e-011
-9.910000000000002e+000	-3.220777e-008	-1.347790e+001	-1.348790e-011
-9.900000000000002e+000	-3.220308e-008	-1.347790e+001	-1.348790e-011
-9.890000000000002e+000	-3.219838e-008	-1.347790e+001	-1.348790e-011
-9.880000000000003e+000	-3.219369e-008	-1.347789e+001	-1.348789e-011
-9.870000000000003e+000	-3.218900e-008	-1.347789e+001	-1.348789e-011
-9.860000000000003e+000	-3.218431e-008	-1.347789e+001	-1.348789e-011
-9.850000000000003e+000	-3.217962e-008	-1.347789e+001	-1.348789e-011
-9.840000000000003e+000	-3.217493e-008	-1.347789e+001	-1.348789e-011
-9.830000000000004e+000	-3.217024e-008	-1.347789e+001	-1.348789e-011
-9.820000000000004e+000	-3.216555e-008	-1.347789e+001	-1.348789e-011
-9.810000000000004e+000	-3.216086e-008	-1.347789e+001	-1.348789e-011
-9.800000000000004e+000	-3.215617e-008	-1.347788e+001	-1.348788e-011
-9.790000000000005e+000	-3.215148e-008	-1.347788e+001	-1.348788e-011
-9.780000000000005e+000	-3.214678e-008	-1.347788e+001	-1.348788e-011
-9.770000000000005e+000	-3.214209e-008	-1.347788e+001	-1.348788e-011
-9.760000000000005e+000	-3.213740e-008	-1.347788e+001	-1.348788e-011
-9.750000000000005e+000	-3.213271e-008	-1.347788e+001	-1.348788e-011
-9.740000000000006e+000	-3.212802e-008	-1.347788e+001	-1.348788e-011
-9.730000000000006e+000	-3.212333e-008	-1.347788e+001	-1.348788e-011
-9.720000000000006e+000	-3.211864e-008	-1.347787e+001	-1.348787e-011
-9.710000000000006e+000	-3.211395e-008	-1.347787e+001	-1.348787e-011
-9.700000000000006e+000	-3.210926e-008	-1.347787e+001	-1.348787e-011
-9.690000000000007e+000	-3.210457e-008	-1.347787e+001	-1.348787e-011
-9.680000000000007e+000	-3.209988e-008	-1.347787e+001	-1.348787e-011
-9.670000000000007e+000	-3.209519e-008	-1.347787e+001	-1.348787e-011
-9.660000000000007e+000	-3.209049e-008	-1.347787e+001	-1.348787e-011
-9.650000000000008e+000	-3.208580e-008	-1.347787e+001	-1.348787e-011
-9.640000000000008e+000	-3.208111e-008	-1.347787e+001	-1.348787e-011
-9.630000000000008e+000	-3.207642e-008	-1.347786e+001	-1.348786e-011
-9.620000000000008e+000	-3.207173e-008	-1.347786e+001	-1.348786e-011
-9.610000000000008e+000	-3.206704e-008	-1.347786e+001	-1.348786e-011
-9.600000000000009e+000	-3.206235e-008	-1.347786e+001	-1.348786e-011
-9.590000000000009e+000	-3.205766e-008	-1.347786e+001	-1.348786e-011
-9.580000000000009e+000	-3.205297e-008	-1.347786e+001	-1.348786e-011
-9.570000000000009e+000	-3.204828e-008	-1.347786e+001	-1.348786e-011
-9.560000000000009e+000	-3.204359e-008	-1.347786e+001	-1.348785e-011
-9.550000000000010e+000	-3.203889e-008	-1.347785e+001	-1.348785e-011
-9.540000000000010e+000	-3.203420e-008	-1.347785e+001	-1.348785e-011
-9.530000000000010e+000	-3.202952e-008	-1.347785e+001	-1.348785e-011
-9.520000000000010e+000	-3.202482e-008	-1.347785e+001	-1.348785e-011
-9.510000000000010e+000	-3.202013e-008	-1.347785e+001	-1.348785e-011
-9.500000000000011e+000	-3.201544e-008	-1.347785e+001	-1.348785e-011
-9.490000000000011e+000	-3.201075e-008	-1.347785e+001	-1.348785e-011
-9.480000000000011e+000	-3.200606e-008	-1.347785e+001	-1.348785e-011
-9.470000000000011e+000	-3.200137e-008	-1.347784e+001	-1.348784e-011
-9.460000000000012e+000	-3.199668e-008	-1.347784e+001	-1.348784e-011
-9.450000000000012e+000	-3.199199e-008	-1.347784e+001	-1.348784e-011
-9.440000000000012e+000	-3.198729e-008	-1.347784e+001	-1.348784e-011
-9.430000000000012e+000	-3.198261e-008	-1.347784e+001	-1.348784e-011
-9.420000000000012e+000	-3.197792e-008	-1.347784e+001	-1.348784e-011
-9.410000000000013e+000	-3.197322e-008	-1.347784e+001	-1.348784e-011
-9.400000000000013e+000	-3.196853e-008	-1.347784e+001	-1.348784e-011
-9.390000000000013e+000	-3.196384e-008	-1.347783e+001	-1.348783e-011
-9.380000000000013e+000	-3.195915e-008	-1.347783e+001	-1.348783e-011
-9.370000000000013e+000	-3.195446e-008	-1.347783e+001	-1.348783e-011
-9.360000000000014e+000	-3.194977e-008	-1.347783e+001	-1.348783e-011
-9.350000000000014e+000	-3.194508e-008	-1.347783e+001	-1.348783e-011
-9.340000000000014e+000	-3.194039e-008	-1.347783e+001	-1.348783e-011
-9.330000000000014e+000	-3.193569e-008	-1.347783e+001	-1.348783e-011
-9.320000000000015e+000	-3.193101e-008	-1.347783e+001	-1.348783e-011
-9.310000000000015e+000	-3.192632e-008	-1.347783e+001	-1.348782e-011
-9.300000000000015e+000	-3.192162e-008	-1.347782e+001	-1.348782e-011
-9.290000000000015e+000	-3.191693e-008	-1.347782e+001	-1.348782e-011
-9.280000000000015e+000	-3.191224e-008	-1.347782e+001	-1.348782e-011
-9.270000000000016e+000	-3.190755e-008	-1.347782e+001	-1.348782e-011
-9.260000000000016e+000	-3.190286e-008	-1.347782e+001	-1.348782e-011
-9.250000000000016e+000	-3.189817e-008	-1.347782e+001	-1.348782e-011
-9.240000000000016e+000	-3.189348e-008	-1.347782e+001	-1.348782e-011
-9.230000000000016e+000	-3.188879e-008	-1.347781e+001	-1.348782e-011
-9.220000000000017e+000	-3.188410e-008	-1.347781e+001	-1.348781e-011
-9.210000000000017e+000	-3.187941e-008	-1.347781e+001	-1.348781e-011
-9.200000000000017e+000	-3.187472e-008	-1.347781e+001	-1.348781e-011
-9.190000000000017e+000	-3.187003e-008	-1.347781e+001	-1.348781e-011
-9.180000000000018e+000	-3.186533e-008	-1.347781e+001	-1.348781e-011
-9.170000000000018e+000	-3.186064e-008	-1.347781e+001	-1.348781e-011
-9.160000000000018e+000	-3.185595e-008	-1.347781e+001	-1.348781e-011
-9.150000000000018e+000	-3.185126e-008	-1.347781e+001	-1.348781e-011
-9.140000000000018e+000	-3.184657e-008	-1.347780e+001	-1.348780e-011
-9.130000000000019e+000	-3.184188e-008	-1.347780e+001	-1.348780e-011
-9.120000000000019e+000	-3.183719e-008	-1.347780e+001	-1.348780e-011
-9.110000000000019e+000	-3.183250e-008	-1.347780e+001	-1.348780e-011
-9.100000000000019e+000	-3.182781e-008	-1.347780e+001	-1.348780e-011
-9.090000000000019e+000	-3.182312e-008	-1.347780e+001	-1.348780e-011
-9.080000000000020e+000	-3.181843e-008	-1.347780e+001	-1.348780e-011
-9.070000000000020e+000	-3.181373e-008	-1.347780e+001	-1.348780e-011
-9.060000000000020e+000	-3.180904e-008	-1.347779e+001	-1.348779e-011
-9.050000000000020e+000	-3.180435e-008	-1.347779e+001	-1.348779e-011
-9.040000000000021e+000	-3.179966e-008	-1.347779e+001	-1.348779e-011
-9.030000000000021e+000	-3.179497e-008	-1.347779e+001	-1.348779e-011
-9.020000000000021e+000	-3.179028e-008	-1.347779e+001	-1.348779e-011
-9.010000000000021e+000	-3.178559e-008	-1.347779e+001	-1.348779e-011
-9.000000000000021e+000	-3.178090e-008	-1.347779e+001	-1.348779e-011
-8.990000000000022e+000	-3.177621e-008	-1.347779e+001	-1.348779e-011
-8.980000000000022e+000	-3.177152e-008	-1.347778e+001	-1.348778e-011
-8.970000000000022e+000	-3.176683e-008	-1.347778e+001	-1.348778e-011
-8.960000000000022e+000	-3.176213e-008	-1.347778e+001	-1.348778e-011
-8.950000000000022e+000	-3.175744e-008	-1.347778e+001	-1.348778e-011
-8.940000000000023e+000	-3.175276e-008	-1.347778e+001	-1.348778e-011
-8.930000000000023e+000	-3.174806e-008	-1.347778e+001	-1.348778e-011
-8.920000000000023e+000	-3.174337e-008	-1.347778e+001	-1.348778e-011
-8.910000000000023e+000	-3.173868e-008	-1.347778e+001	-1.348778e-011
-8.900000000000023e+000	-3.173399e-008	-1.347777e+001	-1.348777e-011
-8.890000000000024e+000	-3.172930e-008	-1.347777e+001	-1.348777e-011
-8.880000000000024e+000	-3.172461e-008	-1.347777e+001	-1.348777e-011
-8.870000000000024e+000	-3.171992e-008	-1.347777e+001	-1.348777e-011
-8.860000000000024e+000	-3.171523e-008	-1.347777e+001	-1.348777e-011
-8.850000000000025e+000	-3.171054e-008	-1.347777e+001	-1.348777e-011
-8.840000000000025e+000	-3.170585e-008	-1.347777e+001	-1.348777e-011
-8.830000000000025e+000	-3.170116e-008	-1.347777e+001	-1.348777e-011
-8.820000000000025e+000	-3.169646e-008	-1.347777e+001	-1.348776e-011
-8.810000000000025e+000	-3.169177e-008	-1.347776e+001	-1.348776e-011
-8.800000000000026e+000	-3.168708e-008	-1.347776e+001	-1.348776e-011
-8.790000000000026e+000	-3.168239e-008	-1.347776e+001	-1.348776e-011
-8.780000000000026e+000	-3.167770e-008	-1.347776e+001	-1.348776e-011
-8.770000000000026e+000	-3.167301e-008	-1.347776e+001	-1.348776e-011
-8.760000000000026e+000	-3.166832e-008	-1.347776e+001	-1.348776e-011
-8.750000000000027e+000	-3.166363e-008	-1.347776e+001	-1.348776e-011
-8.740000000000027e+000	-3.165894e-008	-1.347775e+001	-1.348776e-011
-8.730000000000027e+000	-3.165425e-008	-1.347775e+001	-1.348775e-011
-8.720000000000027e+000	-3.164956e-008	-1.347775e+001	-1.348775e-011
-8.710000000000028e+000	-3.164487e-008	-1.347775e+001	-1.348775e-011
-8.700000000000028e+000	-3.164017e-008	-1.347775e+001	-1.348775e-011
-8.690000000000028e+000	-3.163548e-008	-1.347775e+001	-1.348775e-011
-8.680000000000028e+000	-3.163079e-008	-1.347775e+001	-1.348775e-011
-8.670000000000028e+000	-3.162610e-008	-1.347775e+001	-1.348775e-011
-8.660000000000029e+000	-3.162141e-008	-1.347775e+001	-1.348774e-011
-8.650000000000029e+000	-3.161672e-008	-1.347774e+001	-1.348774e-011
-8.640000000000029e+000	-3.161203e-008	-1.347774e+001	-1.348774e-011
-8.630000000000029e+000	-3.160734e-008	-1.347774e+001	-1.348774e-011
-8.620000000000029e+000	-3.160265e-008	-1.347774e+001	-1.348774e-011
-8.610000000000030e+000	-3.159796e-008	-1.347774e+001	-1.348774e-011
-8.600000000000030e+000	-3.159327e-008	-1.347774e+001	-1.348774e-011
-8.590000000000030e+000	-3.158857e-008	-1.347774e+001	-1.348774e-011
-8.580000000000030e+000	-3.158388e-008	-1.347774e+001	-1.348774e-011
-8.570000000000031e+000	-3.157919e-008	-1.347773e+001	-1.348773e-011
-8.560000000000031e+000	-3.157450e-008	-1.347773e+001	-1.348773e-011
-8.550000000000031e+000	-3.156981e-008	-1.347773e+001	-1.348773e-011
-8.540000000000031e+000	-3.156512e-008	-1.347773e+001	-1.348773e-011
-8.530000000000031e+000	-3.156043e-008	-1.347773e+001	-1.348773e-011
-8.520000000000032e+000	-3.155574e-008	-1.347773e+001	-1.348773e-011
-8.510000000000032e+000	-3.155105e-008	-1.347773e+001	-1.348773e-011
-8.500000000000032e+000	-3.154636e-008	-1.347773e+001	-1.348773e-011
-8.490000000000032e+000	-3.154167e-008	-1.347772e+001	-1.348772e-011
-8.480000000000032e+000	-3.153698e-008	-1.347772e+001	-1.348772e-011
-8.470000000000033e+000	-3.153228e-008	-1.347772e+001	-1.348772e-011
-8.460000000000033e+000	-3.152759e-008	-1.347772e+001	-1.348772e-011
-8.450000000000033e+000	-3.152290e-008	-1.347772e+001	-1.348772e-011
-8.440000000000033e+000	-3.151821e-008	-1.347772e+001	-1.348772e-011
-8.430000000000034e+000	-3.151352e-008	-1.347772e+001	-1.348772e-011
-8.420000000000034e+000	-3.150883e-008	-1.347772e+001	-1.348772e-011
-8.410000000000034e+000	-3.150414e-008	-1.347771e+001	-1.348771e-011
-8.400000000000034e+000	-3.149945e-008	-1.347771e+001	-1.348771e-011
-8.390000000000034e+000	-3.149476e-008	-1.347771e+001	-1.348771e-011
-8.380000000000035e+000	-3.149007e-008	-1.347771e+001	-1.348771e-011
-8.370000000000035e+000	-3.148538e-008	-1.347771e+001	-1.348771e-011
-8.360000000000035e+000	-3.148068e-008	-1.347771e+001	-1.348771e-011
-8.350000000000035e+000	-3.147600e-008	-1.347771e+001	-1.348771e-011
-8.340000000000035e+000	-3.147131e-008	-1.347771e+001	-1.348771e-011
-8.330000000000036e+000	-3.146661e-008	-1.347771e+001	-1.348770e-011
-8.320000000000036e+000	-3.146192e-008	-1.347770e+001	-1.348770e-011
-8.310000000000036e+000	-3.145723e-008	-1.347770e+001	-1.348770e-011
-8.300000000000036e+000	-3.145254e-008	-1.347770e+001	-1.348770e-011
-8.290000000000037e+000	-3.144785e-008	-1.347770e+001	-1.348770e-011
-8.280000000000037e+000	-3.144316e-008	-1.347770e+001	-1.348770e-011
-8.270000000000037e+000	-3.143847e-008	-1.347770e+001	-1.348770e-011
-8.260000000000037e+000	-3.143378e-008	-1.347770e+001	-1.348770e-011
-8.250000000000037e+000	-3.142909e-008	-1.347769e+001	-1.348770e-011
-8.240000000000038e+000	-3.142440e-008	-1.347769e+001	-1.348769e-011
-8.230000000000038e+000	-3.141971e-008	-1.347769e+001	-1.348769e-011
-8.220000000000038e+000	-3.141501e-008	-1.347769e+001	-1.348769e-011
-8.210000000000038e+000	-3.141032e-008	-1.347769e+001	-1.348769e-011
-8.200000000000038e+000	-3.140563e-008	-1.347769e+001	-1.348769e-011
-8.190000000000039e+000	-3.140094e-008	-1.347769e+001	-1.348769e-011
-8.180000000000039e+000	-3.139625e-008	-1.347769e+001	-1.348769e-011
-8.170000000000039e+000	-3.139156e-008	-1.347768e+001	-1.348768e-011
-8.160000000000039e+000	-3.138687e-008	-1.347768e+001	-1.348768e-011
-8.150000000000039e+000	-3.138218e-008	-1.347768e+001	-1.348768e-011
-8.140000000000040e+000	-3.137749e-008	-1.347768e+001	-1.348768e-011
-8.130000000000040e+000	-3.137280e-008	-1.347768e+001	-1.348768e-011
-8.120000000000040e+000	-3.136811e-008	-1.347768e+001	-1.348768e-011
-8.110000000000040e+000	-3.136342e-008	-1.347768e+001	-1.348768e-011
-8.100000000000041e+000	-3.135872e-008	-1.347768e+001	-1.348768e-011
-8.090000000000041e+000	-3.135403e-008	-1.347768e+001	-1.348768e-011
-8.080000000000041e+000	-3.134934e-008	-1.347767e+001	-1.348767e-011
-8.070000000000041e+000	-3.134465e-008	-1.347767e+001	-1.348767e-011
-8.060000000000041e+000	-3.133996e-008	-1.347767e+001	-1.348767e-011
-8.050000000000042e+000	-3.133527e-008	-1.347767e+001	-1.348767e-011
-8.040000000000042e+000	-3.133058e-008	-1.347767e+001	-1.348767e-011
-8.030000000000042e+000	-3.132589e-008	-1.347767e+001	-1.348767e-011
-8.020000000000042e+000	-3.132120e-008	-1.347767e+001	-1.348767e-011
-8.010000000000042e+000	-3.131651e-008	-1.347767e+001	-1.348767e-011
-8.000000000000043e+000	-3.131182e-008	-1.347766e+001	-1.348766e-011
-7.990000000000043e+000	-3.130712e-008	-1.347766e+001	-1.348766e-011
-7.980000000000043e+000	-3.130243e-008	-1.347766e+001	-1.348766e-011
-7.970000000000043e+000	-3.129774e-008	-1.347766e+001	-1.348766e-011
-7.960000000000044e+000	-3.129305e-008	-1.347766e+001	-1.348766e-011
-7.950000000000044e+000	-3.128836e-008	-1.347766e+001	-1.348766e-011
-7.940000000000044e+000	-3.128367e-008	-1.347766e+001	-1.348766e-011
-7.930000000000044e+000	-3.127898e-008	-1.347766e+001	-1.348766e-011
-7.920000000000044e+000	-3.127429e-008	-1.347765e+001	-1.348765e-011
-7.910000000000045e+000	-3.126960e-008	-1.347765e+001	-1.348765e-011
-7.900000000000045e+000	-3.126491e-008	-1.347765e+001	-1.348765e-011
-7.890000000000045e+000	-3.126022e-008	-1.347765e+001	-1.348765e-011
-7.880000000000045e+000	-3.125553e-008	-1.347765e+001	-1.348765e-011
-7.870000000000045e+000	-3.125083e-008	-1.347765e+001	-1.348765e-011
-7.860000000000046e+000	-3.124615e-008	-1.347765e+001	-1.348765e-011
-7.850000000000046e+000	-3.124146e-008	-1.347765e+001	-1.348765e-011
-7.840000000000046e+000	-3.123676e-008	-1.347764e+001	-1.348764e-011
-7.830000000000046e+000	-3.123207e-008	-1.347764e+001	-1.348764e-011
-7.820000000000047e+000	-3.122738e-008	-1.347764e+001	-1.348764e-011
-7.810000000000047e+000	-3.122269e-008	-1.347764e+001	-1.348764e-011
-7.800000000000047e+000	-3.121800e-008	-1.347764e+001	-1.348764e-011
-7.790000000000047e+000	-3.121331e-008	-1.347764e+001	-1.348764e-011
-7.780000000000047e+000	-3.120862e-008	-1.347764e+001	-1.348764e-011
-7.770000000000048e+000	-3.120393e-008	-1.347764e+001	-1.348764e-011
-7.760000000000048e+000	-3.119924e-008	-1.347763e+001	-1.348763e-011
-7.750000000000048e+000	-3.119455e-008	-1.347763e+001	-1.348763e-011
-7.740000000000048e+000	-3.118986e-008	-1.347763e+001	-1.348763e-011
-7.730000000000048e+000	-3.118516e-008	-1.347763e+001	-1.348763e-011
-7.720000000000049e+000	-3.118047e-008	-1.347763e+001	-1.348763e-011
-7.710000000000049e+000	-3.117578e-008	-1.347763e+001	-1.348763e-011
-7.700000000000049e+000	-3.117109e-008	-1.347763e+001	-1.348763e-011
-7.690000000000049e+000	-3.116640e-008	-1.347763e+001	-1.348763e-011
-7.680000000000050e+000	-3.116171e-008	-1.347762e+001	-1.348763e-011
-7.670000000000050e+000	-3.115702e-008	-1.347762e+001	-1.348762e-011
-7.660000000000050e+000	-3.115233e-008	-1.347762e+001	-1.348762e-011
-7.650000000000050e+000	-3.114764e-008	-1.347762e+001	-1.348762e-011
-7.640000000000050e+000	-3.114295e-008	-1.347762e+001	-1.348762e-011
-7.630000000000051e+000	-3.113826e-008	-1.347762e+001	-1.348762e-011
-7.620000000000051e+000	-3.113357e-008	-1.347762e+001	-1.348762e-011
-7.610000000000051e+000	-3.112887e-008	-1.347762e+001	-1.348762e-011
-7.600000000000051e+000	-3.112418e-008	-1.347762e+001	-1.348761e-011
-7.590000000000051e+000	-3.111949e-008	-1.347761e+001	-1.348761e-011
-7.580000000000052e+000	-3.111480e-008	-1.347761e+001	-1.348761e-011
-7.570000000000052e+000	-3.111011e-008	-1.347761e+001	-1.348761e-011
-7.560000000000052e+000	-3.110542e-008	-1.347761e+001	-1.348761e-011
-7.550000000000052e+000	-3.110073e-008	-1.347761e+001	-1.348761e-011
-7.540000000000052e+000	-3.109604e-008	-1.347761e+001	-1.348761e-011
-7.530000000000053e+000	-3.109135e-008	-1.347761e+001	-1.348761e-011
-7.520000000000053e+000	-3.108666e-008	-1.347760e+001	-1.348761e-011
-7.510000000000053e+000	-3.108197e-008	-1.347760e+001	-1.348760e-011
-7.500000000000053e+000	-3.107728e-008	-1.347760e+001	-1.348760e-011
-7.490000000000054e+000	-3.107258e-008	-1.347760e+001	-1.348760e-011
-7.480000000000054e+000	-3.106789e-008	-1.347760e+001	-1.348760e-011
-7.470000000000054e+000	-3.106321e-008	-1.347760e+001	-1.348760e-011
-7.460000000000054e+000	-3.105851e-008	-1.347760e+001	-1.348760e-011
-7.450000000000054e+000	-3.105382e-008	-1.347760e+001	-1.348760e-011
-7.440000000000055e+000	-3.104913e-008	-1.347760e+001	-1.348760e-011
-7.430000000000055e+000	-3.104444e-008	-1.347759e+001	-1.348759e-011
-7.420000000000055e+000	-3.103975e-008	-1.347759e+001	-1.348759e-011
-7.410000000000055e+000	-3.103506e-008	-1.347759e+001	-1.348759e-011
-7.400000000000055e+000	-3.103037e-008	-1.347759e+001	-1.348759e-011
-7.390000000000056e+000	-3.102568e-008	-1.347759e+001	-1.348759e-011
-7.380000000000056e+000	-3.102098e-008	-1.347759e+001	-1.348759e-011
-7.370000000000056e+000	-3.101630e-008	-1.347759e+001	-1.348759e-011
-7.360000000000056e+000	-3.101161e-008	-1.347759e+001	-1.348759e-011
-7.350000000000057e+000	-3.100691e-008	-1.347758e+001	-1.348758e-011
-7.340000000000057e+000	-3.100222e-008	-1.347758e+001	-1.348758e-011
-7.330000000000057e+000	-3.099753e-008	-1.347758e+001	-1.348758e-011
-7.320000000000057e+000	-3.099284e-008	-1.347758e+001	-1.348758e-011
-7.310000000000057e+000	-3.098815e-008	-1.347758e+001	-1.348758e-011
-7.300000000000058e+000	-3.098346e-008	-1.347758e+001	-1.348758e-011
-7.290000000000058e+000	-3.097877e-008	-1.347758e+001	-1.348758e-011
-7.280000000000058e+000	-3.097408e-008	-1.347758e+001	-1.348758e-011
-7.270000000000058e+000	-3.096939e-008	-1.347757e+001	-1.348757e-011
-7.260000000000058e+000	-3.096470e-008	-1.347757e+001	-1.348757e-011
-7.250000000000059e+000	-3.096001e-008	-1.347757e+001	-1.348757e-011
-7.240000000000059e+000	-3.095532e-008	-1.347757e+001	-1.348757e-011
-7.230000000000059e+000	-3.095062e-008	-1.347757e+001	-1.348757e-011
-7.220000000000059e+000	-3.094593e-008	-1.347757e+001	-1.348757e-011
-7.210000000000060e+000	-3.094124e-008	-1.347757e+001	-1.348757e-011
-7.200000000000060e+000	-3.093655e-008	-1.347757e+001	-1.348757e-011
-7.190000000000060e+000	-3.093186e-008	-1.347756e+001	-1.348756e-011
-7.180000000000060e+000	-3.092717e-008	-1.347756e+001	-1.348756e-011
-7.170000000000060e+000	-3.092248e-008	-1.347756e+001	-1.348756e-011
-7.160000000000061e+000	-3.091779e-008	-1.347756e+001	-1.348756e-011
-7.150000000000061e+000	-3.091310e-008	-1.347756e+001	-1.348756e-011
-7.140000000000061e+000	-3.090841e-008	-1.347756e+001	-1.348756e-011
-7.130000000000061e+000	-3.090372e-008	-1.347756e+001	-1.348756e-011
-7.120000000000061e+000	-3.089903e-008	-1.347756e+001	-1.348756e-011
