vdd	V(vce)	I(Rc)
Step Information: Vinput=0  (Run: 1/6)
0.000000000000000e+000	0.000000e+000	0.000000e+000
1.000000000000000e-002	1.000000e-002	3.986921e-014
2.000000000000000e-002	2.000000e-002	6.350386e-014
3.000000000000000e-002	3.000000e-002	-1.332761e-012
4.000000000000000e-002	4.000000e-002	-1.313460e-012
5.000000000000000e-002	5.000000e-002	1.224710e-013
6.000000000000001e-002	6.000000e-002	1.372730e-013
7.000000000000001e-002	7.000000e-002	-1.268536e-012
8.000000000000000e-002	8.000000e-002	-1.256054e-012
9.000000000000000e-002	9.000000e-002	1.749963e-013
9.999999999999999e-002	1.000000e-001	1.862781e-013
1.100000000000000e-001	1.100000e-001	-1.222028e-012
1.200000000000000e-001	1.200000e-001	-1.211345e-012
1.300000000000000e-001	1.300000e-001	2.183921e-013
1.400000000000000e-001	1.400000e-001	2.287216e-013
1.500000000000000e-001	1.500000e-001	-1.180239e-012
1.600000000000000e-001	1.600000e-001	-1.170060e-012
1.700000000000000e-001	1.700000e-001	2.593022e-013
1.800000000000000e-001	1.800000e-001	2.694014e-013
1.900000000000000e-001	1.900000e-001	-1.139769e-012
2.000000000000000e-001	2.000000e-001	-1.129700e-012
2.100000000000001e-001	2.100000e-001	2.996057e-013
2.200000000000001e-001	2.200000e-001	3.096308e-013
2.300000000000001e-001	2.300000e-001	-1.099605e-012
2.400000000000001e-001	2.400000e-001	-1.089585e-012
2.500000000000001e-001	2.500000e-001	3.396500e-013
2.600000000000001e-001	2.600000e-001	3.496645e-013
2.700000000000001e-001	2.700000e-001	-1.059590e-012
2.800000000000001e-001	2.800000e-001	-1.049548e-012
2.900000000000001e-001	2.900000e-001	3.796696e-013
3.000000000000001e-001	3.000000e-001	3.896938e-013
3.100000000000001e-001	3.100000e-001	-1.019537e-012
3.200000000000001e-001	3.200000e-001	-1.009521e-012
3.300000000000001e-001	3.300000e-001	4.197417e-013
3.400000000000001e-001	3.400000e-001	4.297521e-013
3.500000000000001e-001	3.500000e-001	-9.795661e-013
3.600000000000002e-001	3.600000e-001	-9.695608e-013
3.700000000000002e-001	3.700000e-001	4.596934e-013
3.800000000000002e-001	3.800000e-001	4.696976e-013
3.900000000000002e-001	3.900000e-001	-9.395485e-013
4.000000000000002e-001	4.000000e-001	-9.295451e-013
4.100000000000002e-001	4.100000e-001	4.997078e-013
4.200000000000002e-001	4.200000e-001	5.097098e-013
4.300000000000002e-001	4.300000e-001	-8.995374e-013
4.400000000000002e-001	4.400000e-001	-8.895348e-013
4.500000000000002e-001	4.500000e-001	5.397169e-013
4.600000000000002e-001	4.600000e-001	5.497189e-013
4.700000000000003e-001	4.700000e-001	-8.595283e-013
4.800000000000003e-001	4.800000e-001	-8.495268e-013
4.900000000000003e-001	4.900000e-001	5.797257e-013
5.000000000000002e-001	5.000000e-001	5.897277e-013
5.100000000000002e-001	5.100000e-001	-8.195200e-013
5.200000000000002e-001	5.200000e-001	-8.095174e-013
5.300000000000003e-001	5.300000e-001	6.197342e-013
5.400000000000003e-001	5.400000e-001	6.297363e-013
5.500000000000003e-001	5.500000e-001	-7.795120e-013
5.600000000000003e-001	5.600000e-001	-7.695095e-013
5.700000000000003e-001	5.700000e-001	6.597423e-013
5.800000000000003e-001	5.800000e-001	6.697443e-013
5.900000000000003e-001	5.900000e-001	-7.395040e-013
6.000000000000003e-001	6.000000e-001	-7.295020e-013
6.100000000000003e-001	6.100000e-001	6.997503e-013
6.200000000000003e-001	6.200000e-001	7.097522e-013
6.300000000000003e-001	6.300000e-001	-6.994960e-013
6.400000000000004e-001	6.400000e-001	-6.894946e-013
6.500000000000004e-001	6.500000e-001	7.397577e-013
6.600000000000004e-001	6.600000e-001	7.497608e-013
6.700000000000004e-001	6.700000e-001	-6.594880e-013
6.800000000000004e-001	6.800000e-001	-6.494855e-013
6.900000000000004e-001	6.900000e-001	7.797657e-013
7.000000000000004e-001	7.000000e-001	7.897683e-013
7.100000000000004e-001	7.100000e-001	-6.194800e-013
7.200000000000004e-001	7.200000e-001	-6.094780e-013
7.300000000000004e-001	7.300000e-001	8.197743e-013
7.400000000000004e-001	7.400000e-001	8.297757e-013
7.500000000000004e-001	7.500000e-001	-5.794720e-013
7.600000000000005e-001	7.600000e-001	-5.694700e-013
7.700000000000005e-001	7.700000e-001	8.597817e-013
7.800000000000005e-001	7.800000e-001	8.697837e-013
7.900000000000005e-001	7.900000e-001	-5.394640e-013
8.000000000000005e-001	8.000000e-001	-5.294626e-013
8.100000000000005e-001	8.100000e-001	8.997897e-013
8.200000000000005e-001	8.200000e-001	9.097911e-013
8.300000000000005e-001	8.300000e-001	-4.994561e-013
8.400000000000005e-001	8.400000e-001	-4.894535e-013
8.500000000000005e-001	8.500000e-001	9.397977e-013
8.600000000000005e-001	8.600000e-001	9.497997e-013
8.700000000000006e-001	8.700000e-001	-4.594480e-013
8.800000000000006e-001	8.800000e-001	-4.494466e-013
8.900000000000006e-001	8.900000e-001	9.798062e-013
9.000000000000006e-001	9.000000e-001	9.898076e-013
9.100000000000006e-001	9.100000e-001	-4.194406e-013
9.200000000000006e-001	9.200000e-001	-4.094391e-013
9.300000000000006e-001	9.300000e-001	1.019814e-012
9.400000000000006e-001	9.400000e-001	1.029816e-012
9.500000000000006e-001	9.500000e-001	-3.794331e-013
9.600000000000006e-001	9.600000e-001	-3.694300e-013
9.700000000000006e-001	9.700000e-001	1.059822e-012
9.800000000000007e-001	9.800000e-001	1.069824e-012
9.900000000000007e-001	9.900000e-001	-3.394235e-013
1.000000000000001e+000	1.000000e+000	-3.294220e-013
1.010000000000001e+000	1.010000e+000	1.099829e-012
1.020000000000001e+000	1.020000e+000	1.109831e-012
1.030000000000001e+000	1.030000e+000	-2.994160e-013
1.040000000000001e+000	1.040000e+000	-2.894141e-013
1.050000000000001e+000	1.050000e+000	1.139838e-012
1.060000000000001e+000	1.060000e+000	1.149841e-012
1.070000000000001e+000	1.070000e+000	-2.594081e-013
1.080000000000001e+000	1.080000e+000	-2.494060e-013
1.090000000000001e+000	1.090000e+000	1.179846e-012
1.100000000000001e+000	1.100000e+000	1.189847e-012
1.110000000000001e+000	1.110000e+000	-2.194001e-013
1.120000000000001e+000	1.120000e+000	-2.093981e-013
1.130000000000001e+000	1.130000e+000	1.219854e-012
1.140000000000001e+000	1.140000e+000	1.229856e-012
1.150000000000001e+000	1.150000e+000	-1.793921e-013
1.160000000000001e+000	1.160000e+000	-1.693912e-013
1.170000000000001e+000	1.170000e+000	1.259861e-012
1.180000000000001e+000	1.180000e+000	1.269864e-012
1.190000000000001e+000	1.190000e+000	-1.393852e-013
1.200000000000001e+000	1.200000e+000	-1.293821e-013
1.210000000000001e+000	1.210000e+000	1.299870e-012
1.220000000000001e+000	1.220000e+000	1.309871e-012
1.230000000000001e+000	1.230000e+000	-9.937606e-014
1.240000000000001e+000	1.240000e+000	-8.937406e-014
1.250000000000001e+000	1.250000e+000	1.339878e-012
1.260000000000001e+000	1.260000e+000	1.349879e-012
1.270000000000001e+000	1.270000e+000	-5.936806e-014
1.280000000000001e+000	1.280000e+000	-4.936607e-014
1.290000000000001e+000	1.290000e+000	1.379885e-012
1.300000000000001e+000	1.300000e+000	1.389888e-012
1.310000000000001e+000	1.310000e+000	-1.936007e-014
1.320000000000001e+000	1.320000e+000	-9.358070e-015
1.330000000000001e+000	1.330000e+000	1.419894e-012
1.340000000000001e+000	1.340000e+000	1.429897e-012
1.350000000000001e+000	1.350000e+000	2.064793e-014
1.360000000000001e+000	1.360000e+000	3.065104e-014
1.370000000000001e+000	1.370000e+000	1.459902e-012
1.380000000000001e+000	1.380000e+000	1.469904e-012
1.390000000000001e+000	1.390000e+000	6.065593e-014
1.400000000000001e+000	1.400000e+000	7.065792e-014
1.410000000000001e+000	1.410000e+000	1.499910e-012
1.420000000000001e+000	1.420000e+000	1.509911e-012
1.430000000000001e+000	1.430000e+000	1.006650e-013
1.440000000000001e+000	1.440000e+000	1.106659e-013
1.450000000000001e+000	1.450000e+000	1.539918e-012
1.460000000000001e+000	1.460000e+000	1.549921e-012
1.470000000000001e+000	1.470000e+000	1.406708e-013
1.480000000000001e+000	1.480000e+000	1.506739e-013
1.490000000000001e+000	1.490000e+000	1.579926e-012
1.500000000000001e+000	1.500000e+000	1.589928e-012
1.510000000000001e+000	1.510000e+000	1.806799e-013
1.520000000000001e+000	1.520000e+000	1.906819e-013
1.530000000000001e+000	1.530000e+000	1.619933e-012
1.540000000000001e+000	1.540000e+000	1.629935e-012
1.550000000000001e+000	1.550000e+000	2.206868e-013
1.560000000000001e+000	1.560000e+000	2.306888e-013
1.570000000000001e+000	1.570000e+000	1.659941e-012
1.580000000000001e+000	1.580000e+000	1.669945e-012
1.590000000000001e+000	1.590000e+000	2.606959e-013
1.600000000000001e+000	1.600000e+000	2.706979e-013
1.610000000000001e+000	1.610000e+000	1.699949e-012
1.620000000000001e+000	1.620000e+000	1.709952e-012
1.630000000000001e+000	1.630000e+000	3.007028e-013
1.640000000000001e+000	1.640000e+000	3.107059e-013
1.650000000000001e+000	1.650000e+000	1.739959e-012
1.660000000000001e+000	1.660000e+000	1.749959e-012
1.670000000000001e+000	1.670000e+000	3.407108e-013
1.680000000000001e+000	1.680000e+000	3.507150e-013
1.690000000000001e+000	1.690000e+000	1.779966e-012
1.700000000000001e+000	1.700000e+000	1.789969e-012
1.710000000000001e+000	1.710000e+000	3.807199e-013
1.720000000000001e+000	1.720000e+000	3.907208e-013
1.730000000000001e+000	1.730000e+000	1.819973e-012
1.740000000000001e+000	1.740000e+000	1.829977e-012
1.750000000000001e+000	1.750000e+000	4.207279e-013
1.760000000000001e+000	1.760000e+000	4.307288e-013
1.770000000000001e+000	1.770000e+000	1.859981e-012
1.780000000000001e+000	1.780000e+000	1.869984e-012
1.790000000000001e+000	1.790000e+000	4.607359e-013
1.800000000000001e+000	1.800000e+000	4.707379e-013
1.810000000000001e+000	1.810000e+000	1.899990e-012
1.820000000000001e+000	1.820000e+000	1.909992e-012
1.830000000000001e+000	1.830000e+000	5.007439e-013
1.840000000000001e+000	1.840000e+000	5.107459e-013
1.850000000000001e+000	1.850000e+000	1.939998e-012
1.860000000000001e+000	1.860000e+000	1.949998e-012
1.870000000000001e+000	1.870000e+000	5.407508e-013
1.880000000000001e+000	1.880000e+000	5.507539e-013
1.890000000000002e+000	1.890000e+000	1.980006e-012
1.900000000000002e+000	1.900000e+000	1.990008e-012
1.910000000000002e+000	1.910000e+000	5.807599e-013
1.920000000000002e+000	1.920000e+000	5.907630e-013
1.930000000000002e+000	1.930000e+000	2.020015e-012
1.940000000000002e+000	1.940000e+000	2.030018e-012
1.950000000000002e+000	1.950000e+000	6.207679e-013
1.960000000000002e+000	1.960000e+000	6.307710e-013
1.970000000000002e+000	1.970000e+000	2.060020e-012
1.980000000000002e+000	1.980000e+000	2.070024e-012
1.990000000000002e+000	1.990000e+000	6.607759e-013
2.000000000000001e+000	2.000000e+000	6.707779e-013
2.010000000000001e+000	2.010000e+000	2.100029e-012
2.020000000000001e+000	2.020000e+000	2.110032e-012
2.030000000000001e+000	2.030000e+000	7.007817e-013
2.040000000000001e+000	2.040000e+000	7.107870e-013
2.050000000000000e+000	2.050000e+000	2.140037e-012
2.060000000000000e+000	2.060000e+000	2.150042e-012
2.070000000000000e+000	2.070000e+000	7.407919e-013
2.080000000000000e+000	2.080000e+000	7.507950e-013
2.089999999999999e+000	2.090000e+000	2.180047e-012
2.099999999999999e+000	2.100000e+000	2.190048e-012
2.109999999999999e+000	2.110000e+000	7.808021e-013
2.119999999999999e+000	2.120000e+000	7.908052e-013
2.129999999999999e+000	2.130000e+000	2.220055e-012
2.139999999999998e+000	2.140000e+000	2.230056e-012
2.149999999999998e+000	2.150000e+000	8.208079e-013
2.159999999999998e+000	2.160000e+000	8.308087e-013
2.169999999999998e+000	2.170000e+000	2.260061e-012
2.179999999999998e+000	2.180000e+000	2.270064e-012
2.189999999999997e+000	2.190000e+000	8.608181e-013
2.199999999999997e+000	2.200000e+000	8.708168e-013
2.209999999999997e+000	2.210000e+000	2.300071e-012
2.219999999999997e+000	2.220000e+000	2.310072e-012
2.229999999999996e+000	2.230000e+000	9.008238e-013
2.239999999999996e+000	2.240000e+000	9.108270e-013
2.249999999999996e+000	2.250000e+000	2.340077e-012
2.259999999999996e+000	2.260000e+000	2.350080e-012
2.269999999999996e+000	2.270000e+000	9.408318e-013
2.279999999999995e+000	2.280000e+000	9.508327e-013
2.289999999999995e+000	2.290000e+000	2.380085e-012
2.299999999999995e+000	2.300000e+000	2.390086e-012
2.309999999999995e+000	2.310000e+000	9.808399e-013
2.319999999999995e+000	2.320000e+000	9.908408e-013
2.329999999999994e+000	2.330000e+000	2.420093e-012
2.339999999999994e+000	2.340000e+000	2.430096e-012
2.349999999999994e+000	2.350000e+000	1.020848e-012
2.359999999999994e+000	2.360000e+000	1.030849e-012
2.369999999999993e+000	2.370000e+000	2.460099e-012
2.379999999999993e+000	2.380000e+000	2.470104e-012
2.389999999999993e+000	2.390000e+000	1.060854e-012
2.399999999999993e+000	2.400000e+000	1.070859e-012
2.409999999999993e+000	2.410000e+000	2.500107e-012
2.419999999999992e+000	2.420000e+000	2.510110e-012
2.429999999999992e+000	2.430000e+000	1.100864e-012
2.439999999999992e+000	2.440000e+000	1.110862e-012
2.449999999999992e+000	2.450000e+000	2.540117e-012
2.459999999999992e+000	2.460000e+000	2.550118e-012
2.469999999999991e+000	2.470000e+000	1.140872e-012
2.479999999999991e+000	2.480000e+000	1.150871e-012
2.489999999999991e+000	2.490000e+000	2.580125e-012
2.499999999999991e+000	2.500000e+000	2.590126e-012
2.509999999999991e+000	2.510000e+000	1.180880e-012
2.519999999999990e+000	2.520000e+000	1.190879e-012
2.529999999999990e+000	2.530000e+000	2.620131e-012
2.539999999999990e+000	2.540000e+000	2.630134e-012
2.549999999999990e+000	2.550000e+000	1.220888e-012
2.559999999999989e+000	2.560000e+000	1.230886e-012
2.569999999999989e+000	2.570000e+000	2.660143e-012
2.579999999999989e+000	2.580000e+000	2.670146e-012
2.589999999999989e+000	2.590000e+000	1.260898e-012
2.599999999999989e+000	2.600000e+000	1.270899e-012
2.609999999999988e+000	2.610000e+000	2.700149e-012
2.619999999999988e+000	2.620000e+000	2.710152e-012
2.629999999999988e+000	2.630000e+000	1.300904e-012
2.639999999999988e+000	2.640000e+000	1.310905e-012
2.649999999999988e+000	2.650000e+000	2.740157e-012
2.659999999999987e+000	2.660000e+000	2.750160e-012
2.669999999999987e+000	2.670000e+000	1.340914e-012
2.679999999999987e+000	2.680000e+000	1.350913e-012
2.689999999999987e+000	2.690000e+000	2.780165e-012
2.699999999999986e+000	2.700000e+000	2.790170e-012
2.709999999999986e+000	2.710000e+000	1.380920e-012
2.719999999999986e+000	2.720000e+000	1.390923e-012
2.729999999999986e+000	2.730000e+000	2.820173e-012
2.739999999999986e+000	2.740000e+000	2.830176e-012
2.749999999999985e+000	2.750000e+000	1.420928e-012
2.759999999999985e+000	2.760000e+000	1.430929e-012
2.769999999999985e+000	2.770000e+000	2.860183e-012
2.779999999999985e+000	2.780000e+000	2.870182e-012
2.789999999999985e+000	2.790000e+000	1.460938e-012
2.799999999999984e+000	2.800000e+000	1.470937e-012
2.809999999999984e+000	2.810000e+000	2.900191e-012
2.819999999999984e+000	2.820000e+000	2.910192e-012
2.829999999999984e+000	2.830000e+000	1.500946e-012
2.839999999999983e+000	2.840000e+000	1.510945e-012
2.849999999999983e+000	2.850000e+000	2.940199e-012
2.859999999999983e+000	2.860000e+000	2.950200e-012
2.869999999999983e+000	2.870000e+000	1.540952e-012
2.879999999999983e+000	2.880000e+000	1.550953e-012
2.889999999999982e+000	2.890000e+000	2.980207e-012
2.899999999999982e+000	2.900000e+000	2.990208e-012
2.909999999999982e+000	2.910000e+000	1.580958e-012
2.919999999999982e+000	2.920000e+000	1.590963e-012
2.929999999999982e+000	2.930000e+000	3.020213e-012
2.939999999999981e+000	2.940000e+000	3.030216e-012
2.949999999999981e+000	2.950000e+000	1.620966e-012
2.959999999999981e+000	2.960000e+000	1.630969e-012
2.969999999999981e+000	2.970000e+000	3.060221e-012
2.979999999999980e+000	2.980000e+000	3.070224e-012
2.989999999999980e+000	2.990000e+000	1.660976e-012
2.999999999999980e+000	3.000000e+000	1.670977e-012
3.009999999999980e+000	3.010000e+000	3.100231e-012
3.019999999999980e+000	3.020000e+000	3.110232e-012
3.029999999999979e+000	3.030000e+000	1.700982e-012
3.039999999999979e+000	3.040000e+000	1.710987e-012
3.049999999999979e+000	3.050000e+000	3.140237e-012
3.059999999999979e+000	3.060000e+000	3.150240e-012
3.069999999999979e+000	3.070000e+000	1.740990e-012
3.079999999999978e+000	3.080000e+000	1.750993e-012
3.089999999999978e+000	3.090000e+000	3.180247e-012
3.099999999999978e+000	3.100000e+000	3.190248e-012
3.109999999999978e+000	3.110000e+000	1.781000e-012
3.119999999999978e+000	3.120000e+000	1.791001e-012
3.129999999999977e+000	3.130000e+000	3.220255e-012
3.139999999999977e+000	3.140000e+000	3.230256e-012
3.149999999999977e+000	3.150000e+000	1.821010e-012
3.159999999999977e+000	3.160000e+000	1.831013e-012
3.169999999999976e+000	3.170000e+000	3.260263e-012
3.179999999999976e+000	3.180000e+000	3.270264e-012
3.189999999999976e+000	3.190000e+000	1.861018e-012
3.199999999999976e+000	3.200000e+000	1.871021e-012
3.209999999999976e+000	3.210000e+000	3.300267e-012
3.219999999999975e+000	3.220000e+000	3.310270e-012
3.229999999999975e+000	3.230000e+000	1.901024e-012
3.239999999999975e+000	3.240000e+000	1.911027e-012
3.249999999999975e+000	3.250000e+000	3.340279e-012
3.259999999999975e+000	3.260000e+000	3.350278e-012
3.269999999999974e+000	3.270000e+000	1.941032e-012
3.279999999999974e+000	3.280000e+000	1.951039e-012
3.289999999999974e+000	3.290000e+000	3.380280e-012
3.299999999999974e+000	3.300000e+000	3.390288e-012
3.309999999999973e+000	3.310000e+000	1.981042e-012
3.319999999999973e+000	3.320000e+000	1.991045e-012
3.329999999999973e+000	3.330000e+000	3.420291e-012
3.339999999999973e+000	3.340000e+000	3.430294e-012
3.349999999999973e+000	3.350000e+000	2.021050e-012
3.359999999999972e+000	3.360000e+000	2.031051e-012
3.369999999999972e+000	3.370000e+000	3.460299e-012
3.379999999999972e+000	3.380000e+000	3.470302e-012
3.389999999999972e+000	3.390000e+000	2.061060e-012
3.399999999999972e+000	3.400000e+000	2.071057e-012
3.409999999999971e+000	3.410000e+000	3.500307e-012
3.419999999999971e+000	3.420000e+000	3.510310e-012
3.429999999999971e+000	3.430000e+000	2.101062e-012
3.439999999999971e+000	3.440000e+000	2.111065e-012
3.449999999999970e+000	3.450000e+000	3.540315e-012
3.459999999999970e+000	3.460000e+000	3.550316e-012
3.469999999999970e+000	3.470000e+000	2.141074e-012
3.479999999999970e+000	3.480000e+000	2.151075e-012
3.489999999999970e+000	3.490000e+000	3.580325e-012
3.499999999999969e+000	3.500000e+000	3.590328e-012
3.509999999999969e+000	3.510000e+000	2.181080e-012
3.519999999999969e+000	3.520000e+000	2.191083e-012
3.529999999999969e+000	3.530000e+000	3.620331e-012
3.539999999999969e+000	3.540000e+000	3.630331e-012
3.549999999999968e+000	3.550000e+000	2.221086e-012
3.559999999999968e+000	3.560000e+000	2.231093e-012
3.569999999999968e+000	3.570000e+000	3.660336e-012
3.579999999999968e+000	3.580000e+000	3.670340e-012
3.589999999999967e+000	3.590000e+000	2.261098e-012
3.599999999999967e+000	3.600000e+000	2.271099e-012
3.609999999999967e+000	3.610000e+000	3.700347e-012
3.619999999999967e+000	3.620000e+000	3.710350e-012
3.629999999999967e+000	3.630000e+000	2.301106e-012
3.639999999999966e+000	3.640000e+000	2.311109e-012
3.649999999999966e+000	3.650000e+000	3.740355e-012
3.659999999999966e+000	3.660000e+000	3.750360e-012
3.669999999999966e+000	3.670000e+000	2.341116e-012
3.679999999999966e+000	3.680000e+000	2.351115e-012
3.689999999999965e+000	3.690000e+000	3.780363e-012
3.699999999999965e+000	3.700000e+000	3.790366e-012
3.709999999999965e+000	3.710000e+000	2.381124e-012
3.719999999999965e+000	3.720000e+000	2.391125e-012
3.729999999999965e+000	3.730000e+000	3.820371e-012
3.739999999999964e+000	3.740000e+000	3.830374e-012
3.749999999999964e+000	3.750000e+000	2.421132e-012
3.759999999999964e+000	3.760000e+000	2.431133e-012
3.769999999999964e+000	3.770000e+000	3.860376e-012
3.779999999999963e+000	3.780000e+000	3.870384e-012
3.789999999999963e+000	3.790000e+000	2.461136e-012
3.799999999999963e+000	3.800000e+000	2.471141e-012
3.809999999999963e+000	3.810000e+000	3.900389e-012
3.819999999999963e+000	3.820000e+000	3.910390e-012
3.829999999999962e+000	3.830000e+000	2.501148e-012
3.839999999999962e+000	3.840000e+000	2.511147e-012
3.849999999999962e+000	3.850000e+000	3.940395e-012
3.859999999999962e+000	3.860000e+000	3.950398e-012
3.869999999999962e+000	3.870000e+000	2.541154e-012
3.879999999999961e+000	3.880000e+000	2.551153e-012
