time	V(vo)	V(n003)
Step Information: R_e=220  (Run: 1/2)
0.000000000000000e+000	5.941526e-004	0.000000e+000
9.999999717180685e-010	4.889806e-004	9.424778e-007
1.999999943436137e-009	3.743510e-004	1.884956e-006
3.999999886872274e-009	1.183188e-004	3.769911e-006
7.999999773744548e-009	-4.357343e-004	7.539822e-006
1.599999954748910e-008	-1.576159e-003	1.507964e-005
1.023999971039302e-006	-1.455922e-001	9.644315e-004
2.047999942078604e-006	-2.907647e-001	1.924872e-003
4.095999884157209e-006	-5.712972e-001	3.817915e-003
8.191999768314418e-006	-1.080523e+000	7.384348e-003
1.264924314219766e-005	-1.525378e+000	1.070559e-002
1.682093274080860e-005	-1.794303e+000	1.306247e-002
2.040348074050018e-005	-1.899092e+000	1.437876e-002
2.205956317882948e-005	-1.897476e+000	1.474472e-002
2.379310556946752e-005	-1.852851e+000	1.495689e-002
2.605069314504179e-005	-1.750168e+000	1.496733e-002
2.821038369235772e-005	-1.604672e+000	1.469587e-002
3.171387590732729e-005	-1.282368e+000	1.368502e-002
3.730832239277778e-005	-6.523895e-001	1.073357e-002
4.294836626097644e-005	3.564993e-002	6.430688e-003
5.006333077609550e-005	8.356975e-001	-5.968769e-005
5.880309384481226e-005	1.602482e+000	-7.880101e-003
6.409389856771276e-005	1.906278e+000	-1.161391e-002
6.751547899999952e-005	2.010735e+000	-1.337171e-002
6.992733576534876e-005	2.040818e+000	-1.424454e-002
7.170319853627755e-005	2.039782e+000	-1.467933e-002
7.336336520968228e-005	2.021433e+000	-1.492076e-002
7.494417372807988e-005	1.989112e+000	-1.499991e-002
7.647925033729920e-005	1.941626e+000	-1.493526e-002
7.890735313721523e-005	1.832545e+000	-1.455022e-002
8.283782727998061e-005	1.573071e+000	-1.321755e-002
8.906582321508470e-005	9.744388e-001	-9.513478e-003
9.829725221723273e-005	-1.638694e-001	-1.601742e-003
1.059023617032220e-004	-1.168634e+000	5.436205e-003
1.101535327246724e-004	-1.662288e+000	8.933432e-003
1.137653902915015e-004	-1.967843e+000	1.141550e-002
1.171096651709947e-004	-2.128561e+000	1.319408e-002
1.210763375053191e-004	-2.186870e+000	1.454647e-002
1.226908036064445e-004	-2.162511e+000	1.484239e-002
1.245907028820568e-004	-2.086591e+000	1.499504e-002
1.263478434999429e-004	-1.983323e+000	1.494624e-002
1.286937066161825e-004	-1.795307e+000	1.459784e-002
1.324937528284599e-004	-1.406301e+000	1.336777e-002
1.374802325560609e-004	-8.026992e-001	1.061977e-002
1.431848272011551e-004	-7.068180e-002	6.228645e-003
1.502568180407545e-004	7.488818e-001	-2.420348e-004
1.593427753301610e-004	1.560806e+000	-8.308284e-003
1.644252601762798e-004	1.854345e+000	-1.180902e-002
1.677426507841503e-004	1.954224e+000	-1.346736e-002
1.700922500260792e-004	1.982985e+000	-1.429247e-002
1.718264388388158e-004	1.981575e+000	-1.470278e-002
1.735116668930714e-004	1.961689e+000	-1.493446e-002
1.753919356262971e-004	1.920167e+000	-1.499545e-002
1.771381711534624e-004	1.860510e+000	-1.486484e-002
1.799775861060891e-004	1.716325e+000	-1.427236e-002
1.845543591992246e-004	1.372501e+000	-1.237734e-002
1.917034089855942e-004	6.113806e-001	-7.469991e-003
2.018751828753658e-004	-7.028773e-001	1.763232e-003
2.074923199911390e-004	-1.423548e+000	6.803407e-003
2.113798329199897e-004	-1.834204e+000	9.834442e-003
2.147660772431533e-004	-2.081301e+000	1.200436e-002
2.180584592272182e-004	-2.202725e+000	1.359577e-002
2.217936676590601e-004	-2.217972e+000	1.469663e-002
2.234788011158552e-004	-2.175982e+000	1.493154e-002
2.253335864296349e-004	-2.085727e+000	1.499671e-002
2.270431696186614e-004	-1.969948e+000	1.487657e-002
2.298234076991506e-004	-1.720779e+000	1.431640e-002
2.343078639590306e-004	-1.223675e+000	1.250709e-002
2.392886820729407e-004	-5.946825e-001	9.350160e-003
2.455366644765932e-004	2.016421e-001	4.151672e-003
2.531326768448622e-004	1.029144e+000	-2.933451e-003
2.612974748141938e-004	1.678041e+000	-9.775701e-003
2.656584291257567e-004	1.889645e+000	-1.248952e-002
2.686006167926475e-004	1.959216e+000	-1.380371e-002
2.707197446328669e-004	1.975818e+000	-1.446081e-002
2.722971485574969e-004	1.968996e+000	-1.478422e-002
2.740810829783592e-004	1.941767e+000	-1.497500e-002
2.761581348373556e-004	1.886641e+000	-1.496030e-002
2.783851703934972e-004	1.795267e+000	-1.466198e-002
2.819961346663269e-004	1.572529e+000	-1.357396e-002
2.877517299384588e-004	1.050733e+000	-1.043752e-002
2.964337492977451e-004	1.345698e-002	-3.333056e-003
3.053202003741642e-004	-1.161553e+000	4.921309e-003
3.096491575565156e-004	-1.676920e+000	8.547148e-003
3.131718525536325e-004	-1.989839e+000	1.104476e-002
3.164136857354402e-004	-2.167485e+000	1.286953e-002
3.198012166501914e-004	-2.239498e+000	1.420684e-002
3.223248340890584e-004	-2.217231e+000	1.478860e-002
3.241375517473255e-004	-2.153407e+000	1.497798e-002
3.261791787966686e-004	-2.036835e+000	1.495885e-002
3.284194010314383e-004	-1.860488e+000	1.465513e-002
3.320513834778974e-004	-1.491672e+000	1.355172e-002
3.369212157482120e-004	-9.038442e-001	1.098522e-002
3.424647163513905e-004	-1.864570e-001	6.839470e-003
3.493900703300048e-004	6.392848e-001	5.747045e-004
3.582050748891545e-004	1.467244e+000	-7.395072e-003
3.637310676885812e-004	1.812360e+000	-1.139449e-002
3.672684215205251e-004	1.933055e+000	-1.326460e-002
3.697486008571734e-004	1.970078e+000	-1.419085e-002
3.715698634326393e-004	1.972423e+000	-1.465297e-002
3.732008236686937e-004	1.956782e+000	-1.490426e-002
3.748399193093856e-004	1.925063e+000	-1.499924e-002
3.764404992777980e-004	1.876865e+000	-1.493860e-002
3.788443564324859e-004	1.770154e+000	-1.456453e-002
3.827364165285969e-004	1.514713e+000	-1.326247e-002
3.889081702519954e-004	9.237505e-001	-9.627886e-003
3.980763963272818e-004	-2.046561e-001	-1.808543e-003
4.056892976273238e-004	-1.211675e+000	5.248567e-003
4.098976713248677e-004	-1.703880e+000	8.738574e-003
4.134327369291849e-004	-2.009453e+000	1.120964e-002
4.166406480837751e-004	-2.176939e+000	1.297810e-002
4.200652024519447e-004	-2.241661e+000	1.428472e-002
4.224304481034182e-004	-2.216037e+000	1.480493e-002
4.242683816698441e-004	-2.148581e+000	1.498415e-002
4.262279091429735e-004	-2.034907e+000	1.495538e-002
4.284986620417812e-004	-1.854257e+000	1.463903e-002
4.321792740300070e-004	-1.478323e+000	1.349961e-002
4.370334681093281e-004	-8.903661e-001	1.091291e-002
4.426298845557107e-004	-1.658499e-001	6.700561e-003
4.495738449415514e-004	6.582745e-001	4.015937e-004
4.584703171498584e-004	1.485988e+000	-7.611529e-003
4.638914441247722e-004	1.819275e+000	-1.149221e-002
4.673774051774847e-004	1.935178e+000	-1.331225e-002
4.698273655855134e-004	1.970331e+000	-1.421473e-002
4.716285910513088e-004	1.971827e+000	-1.466471e-002
4.732737539118734e-004	1.955659e+000	-1.491185e-002
4.747929414814062e-004	1.926104e+000	-1.499873e-002
4.764230365155992e-004	1.877063e+000	-1.494008e-002
4.788159658622617e-004	1.771327e+000	-1.457091e-002
4.826907017075461e-004	1.517939e+000	-1.328254e-002
4.888370399172264e-004	9.312274e-001	-9.679196e-003
4.979765032127376e-004	-1.796403e-001	-1.901967e-003
5.000000000000000e-004	-4.562421e-001	-1.836970e-017
Step Information: R_e=680  (Run: 2/2)
0.000000000000000e+000	9.618233e-004	0.000000e+000
9.999999717180685e-010	8.224648e-004	9.424778e-007
1.999999943436137e-009	7.100101e-004	1.884956e-006
3.999999886872274e-009	5.406407e-004	3.769911e-006
7.999999773744548e-009	2.626959e-004	7.539822e-006
3.199999909497819e-008	-1.294772e-003	3.015927e-005
2.559999927598256e-007	-1.586000e-002	2.412639e-004
5.119999855196511e-007	-3.260110e-002	4.824654e-004
1.023999971039302e-006	-6.635182e-002	9.644315e-004
4.095999884157209e-006	-2.718095e-001	3.817915e-003
8.191999768314418e-006	-5.306270e-001	7.384348e-003
1.484501355282485e-005	-8.909538e-001	1.204882e-002
1.803250023467059e-005	-1.014976e+000	1.358542e-002
2.030343078931049e-005	-1.065735e+000	1.435162e-002
2.198454622223801e-005	-1.082294e+000	1.473157e-002
2.370241545303401e-005	-1.079137e+000	1.495017e-002
2.601680894545753e-005	-1.048568e+000	1.496940e-002
2.815525432005819e-005	-9.925590e-001	1.470619e-002
3.162479809474332e-005	-8.491925e-001	1.371918e-002
3.716811802189642e-005	-5.448245e-001	1.082546e-002
4.559020791463388e-005	-4.481269e-002	4.103157e-003
5.670880345970465e-005	5.293108e-001	-6.137308e-003
6.284169464713406e-005	7.523447e-001	-1.083186e-002
6.667044543799493e-005	8.363734e-001	-1.299216e-002
6.931874186093021e-005	8.709932e-001	-1.405443e-002
7.125022878660141e-005	8.848144e-001	-1.458560e-002
7.280334824784681e-005	8.889154e-001	-1.485736e-002
7.447301612847107e-005	8.865485e-001	-1.499178e-002
7.630406936018283e-005	8.760315e-001	-1.494968e-002
7.862252377884112e-005	8.494525e-001	-1.461313e-002
8.237902074704984e-005	7.739056e-001	-1.341648e-002
8.835106670806134e-005	5.729300e-001	-1.002453e-002
9.728996594063052e-005	1.253722e-001	-2.541822e-003
1.073505406025858e-004	-4.860086e-001	6.684050e-003
1.132200900387612e-004	-8.255165e-001	1.107548e-002
1.169235283489229e-004	-9.875980e-001	1.310973e-002
1.195001882417940e-004	-1.059235e+000	1.411327e-002
1.213849658773304e-004	-1.086530e+000	1.461472e-002
1.229709678499957e-004	-1.091979e+000	1.487827e-002
1.245103886547671e-004	-1.081785e+000	1.499290e-002
1.263179720156669e-004	-1.051044e+000	1.494860e-002
1.286451321104004e-004	-9.826107e-001	1.460830e-002
1.324154656567547e-004	-8.164425e-001	1.340108e-002
1.384079814770778e-004	-4.761125e-001	9.984566e-003
1.473707319827251e-004	5.622289e-002	2.466771e-003
1.574021906609835e-004	5.579867e-001	-6.727593e-003
1.632507370150797e-004	7.606875e-001	-1.109493e-002
1.669441128908733e-004	8.384436e-001	-1.311914e-002
1.695149777563311e-004	8.705786e-001	-1.411799e-002
1.713959600811627e-004	8.832153e-001	-1.461705e-002
1.729846406220576e-004	8.869148e-001	-1.487990e-002
1.745134392609969e-004	8.844162e-001	-1.499299e-002
1.763191067707447e-004	8.737667e-001	-1.494851e-002
1.786469774077232e-004	8.468899e-001	-1.460791e-002
1.824184400969849e-004	7.706153e-001	-1.339982e-002
1.884126255203427e-004	5.678289e-001	-9.981299e-003
1.973773179980947e-004	1.173652e-001	-2.460648e-003
2.074063942654412e-004	-4.930488e-001	6.731134e-003
2.132532325588487e-004	-8.310630e-001	1.109652e-002
2.169457896346674e-004	-9.922475e-001	1.311991e-002
2.195161826650073e-004	-1.063393e+000	1.411837e-002
2.213968558624282e-004	-1.090395e+000	1.461724e-002
2.229857546166534e-004	-1.095678e+000	1.488003e-002
2.245136878263569e-004	-1.085411e+000	1.499300e-002
2.263191992308234e-004	-1.054541e+000	1.494850e-002
2.286471277627458e-004	-9.858945e-001	1.460788e-002
2.324186824533468e-004	-8.193411e-001	1.339972e-002
2.384130039084676e-004	-4.783868e-001	9.981032e-003
2.473778545865438e-004	5.471078e-002	2.460149e-003
2.574067366956437e-004	5.568253e-001	-6.731423e-003
2.632534358572155e-004	7.596290e-001	-1.109665e-002
2.669459262336446e-004	8.374310e-001	-1.311997e-002
2.695162808264545e-004	8.695893e-001	-1.411840e-002
2.713969288404165e-004	8.822374e-001	-1.461725e-002
2.729858453719635e-004	8.859442e-001	-1.488004e-002
2.745137080766757e-004	8.834497e-001	-1.499300e-002
2.763192067634307e-004	8.727987e-001	-1.494850e-002
2.786471400119809e-004	8.459091e-001	-1.460787e-002
2.824187021978066e-004	7.695891e-001	-1.339971e-002
2.884130347352135e-004	5.666779e-001	-9.981011e-003
2.973778983014607e-004	1.159674e-001	-2.460108e-003
3.074067645924723e-004	-4.946932e-001	6.731446e-003
3.132534524194209e-004	-8.327923e-001	1.109666e-002
3.169459373620440e-004	-9.939838e-001	1.311998e-002
3.195162888234474e-004	-1.065110e+000	1.411840e-002
3.213969347857729e-004	-1.092084e+000	1.461725e-002
3.229858527655980e-004	-1.097336e+000	1.488004e-002
3.245137097264252e-004	-1.087035e+000	1.499300e-002
3.263192073770959e-004	-1.056116e+000	1.494850e-002
3.286471410098993e-004	-9.873980e-001	1.460787e-002
3.324187038063447e-004	-8.207135e-001	1.339971e-002
3.384130372466009e-004	-4.795420e-001	9.981009e-003
3.473779018628179e-004	5.384944e-002	2.460105e-003
3.574067668651626e-004	5.562166e-001	-6.731448e-003
3.632534537687059e-004	7.591190e-001	-1.109666e-002
3.669459382686494e-004	8.369600e-001	-1.311998e-002
3.695162894749442e-004	8.691360e-001	-1.411841e-002
3.713969352701276e-004	8.817926e-001	-1.461725e-002
3.729858533679406e-004	8.855039e-001	-1.488004e-002
3.745137098608265e-004	8.830113e-001	-1.499300e-002
3.763192074270898e-004	8.723598e-001	-1.494850e-002
3.786471410911976e-004	8.454648e-001	-1.460787e-002
3.824187039373887e-004	7.691256e-001	-1.339971e-002
3.884130374511980e-004	5.661614e-001	-9.981009e-003
3.973779021529537e-004	1.153437e-001	-2.460105e-003
4.074067670503135e-004	-4.954365e-001	6.731448e-003
4.132534538786292e-004	-8.335812e-001	1.109666e-002
4.169459383425085e-004	-9.947798e-001	1.311998e-002
4.195162895280201e-004	-1.065899e+000	1.411841e-002
4.213969353095869e-004	-1.092862e+000	1.461725e-002
4.229858534170120e-004	-1.098101e+000	1.488004e-002
4.245137098717759e-004	-1.087784e+000	1.499300e-002
4.263192074311626e-004	-1.056844e+000	1.494850e-002
4.286471410978207e-004	-9.880928e-001	1.460787e-002
4.324187039480643e-004	-8.213492e-001	1.339971e-002
4.384130374678658e-004	-4.800790e-001	9.981009e-003
4.473779021765900e-004	5.344685e-002	2.460105e-003
4.574067670653971e-004	5.559308e-001	-6.731448e-003
4.632534538875842e-004	7.588789e-001	-1.109666e-002
4.669459383485256e-004	8.367378e-001	-1.311998e-002
4.695162895323442e-004	8.689219e-001	-1.411841e-002
4.713969353128016e-004	8.815823e-001	-1.461725e-002
4.729858534210099e-004	8.852956e-001	-1.488004e-002
4.745137098726680e-004	8.828037e-001	-1.499300e-002
4.763192074314945e-004	8.721517e-001	-1.494850e-002
4.786471410983603e-004	8.452539e-001	-1.460787e-002
4.824187039489342e-004	7.689051e-001	-1.339971e-002
4.884130374692240e-004	5.659148e-001	-9.981009e-003
4.973779021785159e-004	1.396270e-001	-2.460105e-003
5.000000000000000e-004	-1.234502e-002	-1.836970e-017
