Freq.	V(vo)
Step Information: R_e=220  (Run: 1/2)
1.00000000000000e+003	(-3.13686344132540e+000dB,-1.06349662867784e+002°)
1.07177346253629e+003	(-2.59377550134169e+000dB,-1.07643030238311e+002°)
1.14869835499704e+003	(-2.05881711067597e+000dB,-1.08996519027854e+002°)
1.23114441334492e+003	(-1.53286448007550e+000dB,-1.10411736716524e+002°)
1.31950791077289e+003	(-1.01685815213557e+000dB,-1.11889759042963e+002°)
1.41421356237310e+003	(-5.11796267490949e-001dB,-1.13431035654739e+002°)
1.51571656651040e+003	(-1.87247523295534e-002dB,-1.15035294950023e+002°)
1.62450479271247e+003	(4.61275904665864e-001dB,-1.16701452616122e+002°)
1.74110112659225e+003	(9.27107467704042e-001dB,-1.18427529427965e+002°)
1.86606598307361e+003	(1.37767432675512e+000dB,-1.20210584725620e+002°)
2.00000000000000e+003	(1.81190711375496e+000dB,-1.22046672469904e+002°)
2.14354692507259e+003	(2.22878892110868e+000dB,-1.23930826683205e+002°)
2.29739670999407e+003	(2.62738313602462e+000dB,-1.25857082263819e+002°)
2.46228882668983e+003	(3.00686158170555e+000dB,-1.27818535501922e+002°)
2.63901582154579e+003	(3.36653140710792e+000dB,-1.29807446173455e+002°)
2.82842712474619e+003	(3.70585904144316e+000dB,-1.31815379973559e+002°)
3.03143313302080e+003	(4.02448956835823e+000dB,-1.33833386616416e+002°)
3.24900958542494e+003	(4.32226009724064e+000dB,-1.35852205588575e+002°)
3.48220225318450e+003	(4.59920610558106e+000dB,-1.37862488780252e+002°)
3.73213196614723e+003	(4.85556025595452e+000dB,-1.39855027462526e+002°)
4.00000000000000e+003	(5.09174378738149e+000dB,-1.41820970614423e+002°)
4.28709385014517e+003	(5.30835116374719e+000dB,-1.43752022510325e+002°)
4.59479341998814e+003	(5.50612915438258e+000dB,-1.45640609603882e+002°)
4.92457765337966e+003	(5.68595186466612e+000dB,-1.47480009747889e+002°)
5.27803164309157e+003	(5.84879339660446e+000dB,-1.49264440213111e+002°)
5.65685424949238e+003	(5.99569980124478e+000dB,-1.50989104343438e+002°)
6.06286626604159e+003	(6.12776181379438e+000dB,-1.52650199604574e+002°)
6.49801917084988e+003	(6.24608958360017e+000dB,-1.54244892007367e+002°)
6.96440450636899e+003	(6.35179027623074e+000dB,-1.55771263234756e+002°)
7.46426393229446e+003	(6.44594908186191e+000dB,-1.57228237409774e+002°)
8.00000000000000e+003	(6.52961385075613e+000dB,-1.58615494297675e+002°)
8.57418770029034e+003	(6.60378331719376e+000dB,-1.59933375129621e+002°)
9.18958683997627e+003	(6.66939867894735e+000dB,-1.61182786294284e+002°)
9.84915530675933e+003	(6.72733817071389e+000dB,-1.62365105058966e+002°)
1.05560632861831e+004	(6.77841419981157e+000dB,-1.63482090408785e+002°)
1.13137084989848e+004	(6.82337258984568e+000dB,-1.64535801062642e+002°)
1.21257325320832e+004	(6.86289349057981e+000dB,-1.65528521896741e+002°)
1.29960383416998e+004	(6.89759354817685e+000dB,-1.66462699315356e+002°)
1.39288090127380e+004	(6.92802897932683e+000dB,-1.67340885538507e+002°)
1.49285278645889e+004	(6.95469924775321e+000dB,-1.68165691474183e+002°)
1.60000000000000e+004	(6.97805109663951e+000dB,-1.68939747537883e+002°)
1.71483754005807e+004	(6.99848274198358e+000dB,-1.69665671670779e+002°)
1.83791736799525e+004	(7.01634807770701e+000dB,-1.70346043737183e+002°)
1.96983106135186e+004	(7.03196078259573e+000dB,-1.70983385468180e+002°)
2.11121265723663e+004	(7.04559825170243e+000dB,-1.71580145180993e+002°)
2.26274169979695e+004	(7.05750530109378e+000dB,-1.72138686499826e+002°)
2.42514650641664e+004	(7.06789761542400e+000dB,-1.72661280449779e+002°)
2.59920766833995e+004	(7.07696492356598e+000dB,-1.73150100310483e+002°)
2.78576180254759e+004	(7.08487389922032e+000dB,-1.73607218722099e+002°)
2.98570557291778e+004	(7.09177079181987e+000dB,-1.74034606599953e+002°)
3.20000000000000e+004	(7.09778379882453e+000dB,-1.74434133481751e+002°)
3.42967508011614e+004	(7.10302519424430e+000dB,-1.74807568991407e+002°)
3.67583473599051e+004	(7.10759323042314e+000dB,-1.75156585158601e+002°)
3.93966212270373e+004	(7.11157383116020e+000dB,-1.75482759362008e+002°)
4.22242531447326e+004	(7.11504209445355e+000dB,-1.75787577764270e+002°)
4.52548339959390e+004	(7.11806362277900e+000dB,-1.76072439019226e+002°)
4.85029301283327e+004	(7.12069569804350e+000dB,-1.76338658211714e+002°)
5.19841533667990e+004	(7.12298831733784e+000dB,-1.76587470892725e+002°)
5.57152360509519e+004	(7.12498510445247e+000dB,-1.76820037152878e+002°)
5.97141114583556e+004	(7.12672411089920e+000dB,-1.77037445676066e+002°)
6.39999999999999e+004	(7.12823851895207e+000dB,-1.77240717730496e+002°)
6.85935016023227e+004	(7.12955725802338e+000dB,-1.77430811065125e+002°)
7.35166947198102e+004	(7.13070554454882e+000dB,-1.77608623692564e+002°)
7.87932424540746e+004	(7.13170535448715e+000dB,-1.77774997511854e+002°)
8.44485062894652e+004	(7.13257583654690e+000dB,-1.77930721851384e+002°)
9.05096679918780e+004	(7.13333367335180e+000dB,-1.78076536774169e+002°)
9.70058602566654e+004	(7.13399339692645e+000dB,-1.78213136294307e+002°)
1.03968306733598e+005	(7.13456766414568e+000dB,-1.78341171413642e+002°)
1.11430472101904e+005	(7.13506749712155e+000dB,-1.78461253011037e+002°)
1.19428222916711e+005	(7.13550249290635e+000dB,-1.78573954583565e+002°)
1.28000000000000e+005	(7.13588100635910e+000dB,-1.78679814844471e+002°)
1.37187003204645e+005	(7.13621030955228e+000dB,-1.78779340183578e+002°)
1.47033389439620e+005	(7.13649673067791e+000dB,-1.78873007005115e+002°)
1.57586484908149e+005	(7.13674577504548e+000dB,-1.78961263889026e+002°)
1.68897012578930e+005	(7.13696223043461e+000dB,-1.79044533764536e+002°)
1.81019335983756e+005	(7.13715025878843e+000dB,-1.79123215799965e+002°)
1.94011720513331e+005	(7.13731347597116e+000dB,-1.79197687318916e+002°)
2.07936613467196e+005	(7.13745502110089e+000dB,-1.79268305568034e+002°)
2.22860944203808e+005	(7.13757761677047e+000dB,-1.79335409403883e+002°)
2.38856445833423e+005	(7.13768362130001e+000dB,-1.79399320897077e+002°)
2.56000000000000e+005	(7.13777507401498e+000dB,-1.79460346860316e+002°)
2.74374006409291e+005	(7.13785373441235e+000dB,-1.79518780306819e+002°)
2.94066778879241e+005	(7.13792111596125e+000dB,-1.79574901862749e+002°)
3.15172969816298e+005	(7.13797851518729e+000dB,-1.79628981018582e+002°)
3.37794025157861e+005	(7.13802703658579e+000dB,-1.79681277588998e+002°)
3.62038671967512e+005	(7.13806761385797e+000dB,-1.79732042781042e+002°)
3.88023441026662e+005	(7.13810102785928e+000dB,-1.79781520482275e+002°)
4.15873226934392e+005	(7.13812792161405e+000dB,-1.79829948410791e+002°)
4.45721888407615e+005	(7.13814881268066e+000dB,-1.79877559253708e+002°)
4.77712891666845e+005	(7.13816410310499e+000dB,-1.79924581782121e+002°)
5.12000000000000e+005	(7.13817408715272e+000dB,-1.79971241947721e+002°)
5.48748012818582e+005	(7.13817895696920e+000dB,1.79982236033780e+002°)
5.88133557758481e+005	(7.13817880627336e+000dB,1.79935628572690e+002°)
6.30345939632597e+005	(7.13817363216925e+000dB,1.79888711806196e+002°)
6.75588050315721e+005	(7.13816333507238e+000dB,1.79841260177713e+002°)
7.24077343935024e+005	(7.13814771681199e+000dB,1.79793045701784e+002°)
7.76046882053323e+005	(7.13812647681029e+000dB,1.79743836697292e+002°)
8.31746453868784e+005	(7.13809920630287e+000dB,1.79693396711113e+002°)
8.91443776815230e+005	(7.13806538047676e+000dB,1.79641483384547e+002°)
9.55425783333690e+005	(7.13802434837729e+000dB,1.79587847291854e+002°)
1.02400000000000e+006	(7.13797532038994e+000dB,1.79532230745446e+002°)
1.09749602563716e+006	(7.13791735305729e+000dB,1.79474366562175e+002°)
1.17626711551696e+006	(7.13784933093310e+000dB,1.79413976715730e+002°)
1.26069187926519e+006	(7.13776994517443e+000dB,1.79350771354106e+002°)
1.35117610063144e+006	(7.13767766831602e+000dB,1.79284446721515e+002°)
1.44815468787005e+006	(7.13757072498779e+000dB,1.79214684402703e+002°)
1.55209376410665e+006	(7.13744705777201e+000dB,1.79141149458942e+002°)
1.66349290773757e+006	(7.13730428769432e+000dB,1.79063488903487e+002°)
1.78288755363046e+006	(7.13713966854575e+000dB,1.78981330024714e+002°)
1.91085156666738e+006	(7.13695003417286e+000dB,1.78894278618984e+002°)
2.04800000000000e+006	(7.13673173773265e+000dB,1.78801917125783e+002°)
2.19499205127433e+006	(7.13648058175853e+000dB,1.78703802657484e+002°)
2.35253423103393e+006	(7.13619173768421e+000dB,1.78599464777297e+002°)
2.52138375853039e+006	(7.13585965349607e+000dB,1.78488403987057e+002°)
2.70235220126289e+006	(7.13547794719188e+000dB,1.78370088007570e+002°)
2.89630937574010e+006	(7.13503928500935e+000dB,1.78243950691687e+002°)
3.10418752821329e+006	(7.13453524117445e+000dB,1.78109388713411e+002°)
3.32698581547514e+006	(7.13395613713095e+000dB,1.77965758933975e+002°)
3.56577510726092e+006	(7.13329085707032e+000dB,1.77812375467326e+002°)
3.82170313333476e+006	(7.13252663637963e+000dB,1.77648506576176e+002°)
4.09600000000000e+006	(7.13164881912054e+000dB,1.77473371391928e+002°)
4.38998410254865e+006	(7.13064058011562e+000dB,1.77286136452838e+002°)
4.70506846206785e+006	(7.12948260650413e+000dB,1.77085911779145e+002°)
5.04276751706077e+006	(7.12815273383081e+000dB,1.76871748422042e+002°)
5.40470440252577e+006	(7.12662552790597e+000dB,1.76642631669080e+002°)
5.79261875148019e+006	(7.12487180897969e+000dB,1.76397479605450e+002°)
6.20837505642659e+006	(7.12285810617409e+000dB,1.76135137342797e+002°)
6.65397163095028e+006	(7.12054603524995e+000dB,1.75854372746142e+002°)
7.13155021452184e+006	(7.11789158861975e+000dB,1.75553871739380e+002°)
7.64340626666952e+006	(7.11484432622751e+000dB,1.75232233494471e+002°)
8.19199999999999e+006	(7.11134645457316e+000dB,1.74887965542786e+002°)
8.77996820509731e+006	(7.10733177988854e+000dB,1.74519478859926e+002°)
9.41013692413570e+006	(7.10272451976256e+000dB,1.74125082437159e+002°)
1.00855350341215e+007	(7.09743795977718e+000dB,1.73702981302685e+002°)
1.08094088050515e+007	(7.09137292841726e+000dB,1.73251266470837e+002°)
1.15852375029604e+007	(7.08441608705678e+000dB,1.72767916341418e+002°)
1.24167501128532e+007	(7.07643800082474e+000dB,1.72250790333942e+002°)
1.33079432619006e+007	(7.06729098062223e+000dB,1.71697626596758e+002°)
1.42631004290437e+007	(7.05680667522525e+000dB,1.71106040168288e+002°)
1.52868125333390e+007	(7.04479339786914e+000dB,1.70473522450776e+002°)
1.63840000000000e+007	(7.03103317474964e+000dB,1.69797442362428e+002°)
1.75599364101946e+007	(7.01527850832822e+000dB,1.69075049599907e+002°)
1.88202738482714e+007	(6.99724885463042e+000dB,1.68303479408694e+002°)
2.01710700682431e+007	(6.97662683856617e+000dB,1.67479767184189e+002°)
2.16188176101031e+007	(6.95305419883411e+000dB,1.66600850327870e+002°)
2.31704750059208e+007	(6.92612756925069e+000dB,1.65663596802492e+002°)
2.48335002257063e+007	(6.89539410971288e+000dB,1.64664822452604e+002°)
2.66158865238011e+007	(6.86034712706408e+000dB,1.63601321140448e+002°)
2.85262008580874e+007	(6.82042181684776e+000dB,1.62469900770617e+002°)
3.05736250666781e+007	(6.77499131547318e+000dB,1.61267427069149e+002°)
3.27680000000000e+007	(6.72336330122879e+000dB,1.59990875742423e+002°)
3.51198728203892e+007	(6.66477743689301e+000dB,1.58637393406086e+002°)
3.76405476965428e+007	(6.59840399496533e+000dB,1.57204365111191e+002°)
4.03421401364862e+007	(6.52334410557994e+000dB,1.55689503398258e+002°)
4.32376352202062e+007	(6.43863192925328e+000dB,1.54090911485557e+002°)
4.63409500118415e+007	(6.34323941882842e+000dB,1.52407195654961e+002°)
4.96670004514127e+007	(6.23608387857488e+000dB,1.50637546790210e+002°)
5.32317730476022e+007	(6.11603880953520e+000dB,1.48781833243835e+002°)
5.70524017161747e+007	(5.98194823054924e+000dB,1.46840684484172e+002°)
6.11472501333562e+007	(5.83264452347997e+000dB,1.44815561647600e+002°)
6.55359999999999e+007	(5.66696958873728e+000dB,1.42708808285350e+002°)
7.02397456407785e+007	(5.48379878589470e+000dB,1.40523674457034e+002°)
7.52810953930856e+007	(5.28206677272665e+000dB,1.38264303517843e+002°)
8.06842802729724e+007	(5.06079416678836e+000dB,1.35935707055092e+002°)
8.64752704404123e+007	(4.81911314982553e+000dB,1.33543633945612e+002°)
9.26819000236831e+007	(4.55629099410766e+000dB,1.31094485760928e+002°)
9.93340009028254e+007	(4.27174916275624e+000dB,1.28595129972954e+002°)
1.00000000000000e+008	(4.24315349256561e+000dB,1.28351789360016e+002°)
Step Information: R_e=680  (Run: 2/2)
1.00000000000000e+003	(-4.17796005033209e+000dB,-1.24597848165554e+002°)
1.07177346253629e+003	(-3.80115010404491e+000dB,-1.26674451460390e+002°)
1.14869835499704e+003	(-3.44440973749733e+000dB,-1.28769654232261e+002°)
1.23114441334492e+003	(-3.10822064354429e+000dB,-1.30875384465092e+002°)
1.31950791077289e+003	(-2.79288515208026e+000dB,-1.32983061884511e+002°)
1.41421356237310e+003	(-2.49851385094919e+000dB,-1.35083809593949e+002°)
1.51571656651040e+003	(-2.22502041460012e+000dB,-1.37168680207451e+002°)
1.62450479271247e+003	(-1.97212401957786e+000dB,-1.39228883742439e+002°)
1.74110112659225e+003	(-1.73935912651059e+000dB,-1.41256004341651e+002°)
1.86606598307361e+003	(-1.52609183764500e+000dB,-1.43242194056849e+002°)
2.00000000000000e+003	(-1.33154157215002e+000dB,-1.45180334255463e+002°)
2.14354692507259e+003	(-1.15480649258131e+000dB,-1.47064158333909e+002°)
2.29739670999407e+003	(-9.94890990021154e-001dB,-1.48888332875470e+002°)
2.46228882668983e+003	(-8.50733586271136e-001dB,-1.50648497698075e+002°)
2.63901582154579e+003	(-7.21233807462836e-001dB,-1.52341268049235e+002°)
2.82842712474619e+003	(-6.05276877349897e-001dB,-1.53964204249927e+002°)
3.03143313302080e+003	(-5.01755418732389e-001dB,-1.55515755309942e+002°)
3.24900958542494e+003	(-4.09587691505474e-001dB,-1.56995183462028e+002°)
3.48220225318450e+003	(-3.27732200416055e-001dB,-1.58402476335387e+002°)
3.73213196614723e+003	(-2.55198753056783e-001dB,-1.59738252792328e+002°)
4.00000000000000e+003	(-1.91056230059979e-001dB,-1.61003667474401e+002°)
4.28709385014517e+003	(-1.34437446183593e-001dB,-1.62200318012251e+002°)
4.59479341998814e+003	(-8.45415410376392e-002dB,-1.63330157776201e+002°)
4.92457765337966e+003	(-4.06343531150405e-002dB,-1.64395416068354e+002°)
5.27803164309157e+003	(-2.04721292226419e-003dB,-1.65398526831087e+002°)
5.65685424949238e+003	(3.18254481688769e-002dB,-1.66342066288732e+002°)
6.06286626604159e+003	(6.15293276546017e-002dB,-1.67228699441360e+002°)
6.49801917084988e+003	(8.75540298320739e-002dB,-1.68061134997636e+002°)
6.96440450636899e+003	(1.10337156092679e-001dB,-1.68842088080727e+002°)
7.46426393229446e+003	(1.30268522189393e-001dB,-1.69574249954176e+002°)
8.00000000000000e+003	(1.47694361651869e-001dB,-1.70260263933847e+002°)
8.57418770029034e+003	(1.62921412435771e-001dB,-1.70902706669641e+002°)
9.18958683997627e+003	(1.76220815162114e-001dB,-1.71504074014891e+002°)
9.84915530675933e+003	(1.87831776378685e-001dB,-1.72066770757561e+002°)
1.05560632861831e+004	(1.97964969856413e-001dB,-1.72593103574210e+002°)
1.13137084989848e+004	(2.06805663815962e-001dB,-1.73085276614239e+002°)
1.21257325320832e+004	(2.14516572961762e-001dB,-1.73545389226497e+002°)
1.29960383416998e+004	(2.21240442026916e-001dB,-1.73975435411454e+002°)
1.39288090127380e+004	(2.27102372864265e-001dB,-1.74377304601961e+002°)
1.49285278645889e+004	(2.32211910515867e-001dB,-1.74752783505808e+002°)
1.60000000000000e+004	(2.36664905629610e-001dB,-1.75103558734625e+002°)
1.71483754005807e+004	(2.40545171444176e-001dB,-1.75431220018762e+002°)
1.83791736799525e+004	(2.43925953636222e-001dB,-1.75737263838508e+002°)
1.96983106135186e+004	(2.46871230853780e-001dB,-1.76023097326869e+002°)
2.11121265723663e+004	(2.49436862926893e-001dB,-1.76290042356800e+002°)
2.26274169979695e+004	(2.51671602691543e-001dB,-1.76539339687868e+002°)
2.42514650641664e+004	(2.53617986180567e-001dB,-1.76772153141940e+002°)
2.59920766833995e+004	(2.55313114707551e-001dB,-1.76989573732469e+002°)
2.78576180254759e+004	(2.56789341140139e-001dB,-1.77192623714786e+002°)
2.98570557291778e+004	(2.58074871469421e-001dB,-1.77382260526576e+002°)
3.20000000000000e+004	(2.59194291651104e-001dB,-1.77559380597020e+002°)
3.42967508011614e+004	(2.60169028638265e-001dB,-1.77724823009815e+002°)
3.67583473599051e+004	(2.61017753550008e-001dB,-1.77879373012706e+002°)
3.93966212270373e+004	(2.61756734029463e-001dB,-1.78023765353057e+002°)
4.22242531447326e+004	(2.62400142035212e-001dB,-1.78158687482992e+002°)
4.52548339959390e+004	(2.62960322582693e-001dB,-1.78284782558658e+002°)
4.85029301283327e+004	(2.63448028297233e-001dB,-1.78402652312063e+002°)
5.19841533667990e+004	(2.63872624057944e-001dB,-1.78512859753773e+002°)
5.57152360509519e+004	(2.64242265492607e-001dB,-1.78615931726705e+002°)
5.97141114583556e+004	(2.64564054623195e-001dB,-1.78712361314554e+002°)
6.39999999999999e+004	(2.64844175554842e-001dB,-1.78802610111126e+002°)
6.85935016023227e+004	(2.65088012741914e-001dB,-1.78887110357166e+002°)
7.35166947198102e+004	(2.65300254048140e-001dB,-1.78966266955749e+002°)
7.87932424540746e+004	(2.65484980539744e-001dB,-1.79040459342681e+002°)
8.44485062894652e+004	(2.65645744705068e-001dB,-1.79110043309791e+002°)
9.05096679918780e+004	(2.65785638581758e-001dB,-1.79175352635890e+002°)
9.70058602566654e+004	(2.65907353081795e-001dB,-1.79236700683790e+002°)
1.03968306733598e+005	(2.66013229642289e-001dB,-1.79294381878581e+002°)
1.11430472101904e+005	(2.66105305184633e-001dB,-1.79348673103625e+002°)
1.19428222916711e+005	(2.66185351238929e-001dB,-1.79399835015839e+002°)
1.28000000000000e+005	(2.66254907980246e-001dB,-1.79448113285896e+002°)
1.37187003204645e+005	(2.66315313827043e-001dB,-1.79493739768763e+002°)
1.47033389439620e+005	(2.66367731167526e-001dB,-1.79536933618442e+002°)
1.57586484908149e+005	(2.66413168707117e-001dB,-1.79577902291106e+002°)
1.68897012578930e+005	(2.66452500862892e-001dB,-1.79616842623638e+002°)
1.81019335983756e+005	(2.66486484580218e-001dB,-1.79653941688321e+002°)
1.94011720513331e+005	(2.66515773890592e-001dB,-1.79689377731787e+002°)
2.07936613467196e+005	(2.66540932491946e-001dB,-1.79723321020113e+002°)
2.22860944203808e+005	(2.66562444592316e-001dB,-1.79755934654778e+002°)
2.38856445833423e+005	(2.66580724225060e-001dB,-1.79787375354633e+002°)
2.56000000000000e+005	(2.66596123214588e-001dB,-1.79817794207563e+002°)
2.74374006409291e+005	(2.66608937945614e-001dB,-1.79847337395353e+002°)
2.94066778879241e+005	(2.66619415065592e-001dB,-1.79876146912587e+002°)
3.15172969816298e+005	(2.66627756232635e-001dB,-1.79904361161351e+002°)
3.37794025157861e+005	(2.66634121992128e-001dB,-1.79932115789551e+002°)
3.62038671967512e+005	(2.66638634869971e-001dB,-1.79959544168414e+002°)
3.88023441026662e+005	(2.66641381728480e-001dB,-1.79986778119852e+002°)
4.15873226934392e+005	(2.66642415438360e-001dB,1.79986051467786e+002°)
4.45721888407615e+005	(2.66641755896120e-001dB,1.79958814011059e+002°)
4.77712891666845e+005	(2.66639390406997e-001dB,1.79931378604222e+002°)
5.12000000000000e+005	(2.66635273440611e-001dB,1.79903613390456e+002°)
5.48748012818582e+005	(2.66629325754804e-001dB,1.79875384928553e+002°)
5.88133557758481e+005	(2.66621432869205e-001dB,1.79846557517290e+002°)
6.30345939632597e+005	(2.66611442869528e-001dB,1.79816992717490e+002°)
6.75588050315721e+005	(2.66599163469584e-001dB,1.79786548339533e+002°)
7.24077343935024e+005	(2.66584358325766e-001dB,1.79755078108347e+002°)
7.76046882053323e+005	(2.66566742481920e-001dB,1.79722430787430e+002°)
8.31746453868784e+005	(2.66545976887823e-001dB,1.79688449487693e+002°)
8.91443776815230e+005	(2.66521661875545e-001dB,1.79652970914623e+002°)
9.55425783333690e+005	(2.66493329469985e-001dB,1.79615824584936e+002°)
1.02400000000000e+006	(2.66460434385650e-001dB,1.79576832009019e+002°)
1.09749602563716e+006	(2.66422343536935e-001dB,1.79535805835305e+002°)
1.17626711551696e+006	(2.66378323854551e-001dB,1.79492548883131e+002°)
1.26069187926519e+006	(2.66327528214827e-001dB,1.79446853545970e+002°)
1.35117610063144e+006	(2.66268979090275e-001dB,1.79398500102400e+002°)
1.44815468787005e+006	(2.66201549810571e-001dB,1.79347256360623e+002°)
1.55209376410665e+006	(2.66123942872070e-001dB,1.79292876201301e+002°)
1.66349290773757e+006	(2.66034665001864e-001dB,1.79235098471902e+002°)
1.78288755363046e+006	(2.65931998458461e-001dB,1.79173645741160e+002°)
