time	V(vo)	V(n003)
Step Information: R_e=220  (Run: 1/2)
0.000000000000000e+000	5.941526e-004	0.000000e+000
1.953124944761853e-012	5.310607e-004	1.840777e-009
3.906249889523705e-012	5.098765e-004	3.681554e-009
7.812499779047410e-012	5.094174e-004	7.363107e-009
3.124999911618964e-011	5.682764e-004	2.945243e-008
6.249999823237928e-011	5.957403e-004	5.890486e-008
1.249999964647586e-010	5.876655e-004	1.178097e-007
2.499999929295171e-010	5.713511e-004	2.356194e-007
4.999999858590343e-010	5.473638e-004	4.712389e-007
9.999999717180685e-010	4.989746e-004	9.424778e-007
1.999999943436137e-009	3.842637e-004	1.884956e-006
3.999999886872274e-009	1.239922e-004	3.769911e-006
7.999999773744548e-009	-4.349714e-004	7.539822e-006
3.199999909497819e-008	-3.863249e-003	3.015927e-005
2.209124992759826e-006	-3.144125e-001	2.075372e-003
4.162249992759827e-006	-5.876079e-001	3.878265e-003
5.920062492759824e-006	-8.239080e-001	5.451750e-003
7.677874992759821e-006	-1.046504e+000	6.958800e-003
9.435687492759826e-006	-1.251061e+000	8.381050e-003
1.119349999275983e-005	-1.433529e+000	9.701168e-003
1.295131249275984e-005	-1.590294e+000	1.090307e-002
1.470912499275984e-005	-1.718294e+000	1.197210e-002
1.646693749275983e-005	-1.815125e+000	1.289524e-002
1.822474999275982e-005	-1.879102e+000	1.366124e-002
1.998256249275981e-005	-1.909294e+000	1.426076e-002
2.174037499275980e-005	-1.905538e+000	1.468650e-002
2.349818749275979e-005	-1.868411e+000	1.493327e-002
2.525599999275978e-005	-1.799190e+000	1.499806e-002
2.701381249275977e-005	-1.699790e+000	1.488008e-002
2.896693749275976e-005	-1.556980e+000	1.453647e-002
3.092006249275975e-005	-1.384045e+000	1.397421e-002
3.287318749275974e-005	-1.185594e+000	1.320176e-002
3.482631249275973e-005	-9.665963e-001	1.223075e-002
3.697474999275971e-005	-7.081149e-001	1.095081e-002
3.951381249275970e-005	-3.879752e-001	9.183316e-003
4.185756249275968e-005	-8.723555e-002	7.343653e-003
4.244349999275968e-005	-1.223707e-002	6.857261e-003
4.302943749275968e-005	6.245390e-002	6.361575e-003
4.420131249275967e-005	2.104800e-001	5.345022e-003
4.576381249275966e-005	4.038403e-001	3.945538e-003
4.752162499275965e-005	6.138901e-001	2.326385e-003
4.947474999275964e-005	8.354527e-001	4.949466e-004
5.142787499275962e-005	1.042187e+000	-1.343936e-003
5.357631249275961e-005	1.250151e+000	-3.342301e-003
5.572474999275960e-005	1.435878e+000	-5.279855e-003
5.806849999275958e-005	1.611555e+000	-7.282812e-003
6.041224999275957e-005	1.758051e+000	-9.128119e-003
6.295131249275962e-005	1.883088e+000	-1.090307e-002
6.549037499275969e-005	1.972688e+000	-1.240111e-002
6.802943749275976e-005	2.026580e+000	-1.358420e-002
7.056849999275983e-005	2.044471e+000	-1.442228e-002
7.310756249275991e-005	2.025934e+000	-1.489409e-002
7.564662499275998e-005	1.970361e+000	-1.498762e-002
7.818568749276005e-005	1.877009e+000	-1.470051e-002
8.052943749276012e-005	1.756655e+000	-1.410379e-002
8.287318749276019e-005	1.603043e+000	-1.320176e-002
8.502162499276025e-005	1.432962e+000	-1.212326e-002
8.697474999276030e-005	1.254394e+000	-1.095081e-002
8.892787499276036e-005	1.053807e+000	-9.613638e-003
9.068568749276041e-005	8.555392e-001	-8.285936e-003
9.224818749276046e-005	6.663699e-001	-7.020457e-003
9.381068749276050e-005	4.664009e-001	-5.687367e-003
9.517787499276054e-005	2.838555e-001	-4.475531e-003
9.615443749276057e-005	1.498900e-001	-3.589194e-003
9.693568749276059e-005	4.097819e-002	-2.870236e-003
9.713099999276060e-005	1.354646e-002	-2.689348e-003
9.752162499276061e-005	-4.152824e-002	-2.326385e-003
9.888881249276065e-005	-2.359798e-001	-1.046419e-003
1.024044374927608e-004	-7.370877e-001	2.257518e-003
1.047481874927608e-004	-1.059027e+000	4.408972e-003
1.068966249927609e-004	-1.335026e+000	6.298399e-003
1.088497499927609e-004	-1.563105e+000	7.917482e-003
1.108028749927610e-004	-1.763644e+000	9.417480e-003
1.127559999927610e-004	-1.931694e+000	1.077583e-002
1.147091249927611e-004	-2.063162e+000	1.197210e-002
1.166622499927612e-004	-2.154965e+000	1.298830e-002
1.186153749927612e-004	-2.205128e+000	1.380914e-002
1.205684999927613e-004	-2.212823e+000	1.442228e-002
1.225216249927613e-004	-2.178362e+000	1.481850e-002
1.244747499927614e-004	-2.103144e+000	1.499183e-002
1.264278749927614e-004	-1.989568e+000	1.493967e-002
1.283809999927615e-004	-1.840915e+000	1.466281e-002
1.305294374927616e-004	-1.641697e+000	1.410379e-002
1.326778749927616e-004	-1.411041e+000	1.328816e-002
1.350216249927617e-004	-1.131422e+000	1.212326e-002
1.375606874927618e-004	-8.057137e-001	1.056608e-002
1.400997499927618e-004	-4.673713e-001	8.740549e-003
1.422481874927619e-004	-1.791872e-001	7.020457e-003
1.432247499927619e-004	-4.936851e-002	6.194397e-003
1.436153749927619e-004	2.177944e-003	5.857267e-003
1.442013124927619e-004	7.899169e-002	5.345022e-003
1.451778749927620e-004	2.054178e-001	4.475531e-003
1.465450624927620e-004	3.783294e-001	3.230688e-003
1.481075624927621e-004	5.688413e-001	1.779380e-003
1.498653749927621e-004	7.724246e-001	1.268796e-004
1.518184999927622e-004	9.833272e-001	-1.710169e-003
1.537716249927622e-004	1.176369e+000	-3.521495e-003
1.559200624927623e-004	1.366473e+000	-5.451750e-003
1.580684999927623e-004	1.532073e+000	-7.282812e-003
1.604122499927624e-004	1.683858e+000	-9.128119e-003
1.627559999927625e-004	1.804966e+000	-1.077583e-002
1.652950624927626e-004	1.901221e+000	-1.229662e-002
1.678341249927626e-004	1.960943e+000	-1.350511e-002
1.703731874927627e-004	1.983924e+000	-1.437060e-002
1.729122499927628e-004	1.969824e+000	-1.487113e-002
1.754513124927628e-004	1.918122e+000	-1.499397e-002
1.777950624927629e-004	1.836450e+000	-1.476928e-002
1.801388124927630e-004	1.721635e+000	-1.422488e-002
1.822872499927630e-004	1.586925e+000	-1.345493e-002
1.844356874927631e-004	1.423961e+000	-1.244018e-002
1.863888124927632e-004	1.251577e+000	-1.132069e-002
1.883419374927632e-004	1.056804e+000	-1.003093e-002
1.900997499927633e-004	8.633518e-001	-8.740549e-003
1.916622499927633e-004	6.780401e-001	-7.503605e-003
1.932247499927634e-004	4.814405e-001	-6.194397e-003
1.945919374927634e-004	3.013707e-001	-4.999458e-003
1.955684999927634e-004	1.688667e-001	-4.122832e-003
1.963497499927634e-004	6.092269e-002	-3.410198e-003
1.965450624927634e-004	3.370350e-002	-3.230688e-003
1.967403749927635e-004	6.400128e-003	-3.050692e-003
1.971309999927635e-004	-4.843994e-002	-2.689348e-003
1.983028749927635e-004	-2.144743e-001	-1.596473e-003
1.998653749927635e-004	-4.378409e-001	-1.268796e-004
2.000000000000000e-004	-4.571145e-001	1.929747e-017
Step Information: R_e=680  (Run: 2/2)
0.000000000000000e+000	9.618233e-004	0.000000e+000
1.953124944761853e-012	1.306695e-003	1.840777e-009
3.906249889523705e-012	1.421360e-003	3.681554e-009
7.812499779047410e-012	1.370798e-003	7.363107e-009
1.562499955809482e-011	1.220013e-003	1.472621e-008
3.124999911618964e-011	1.104750e-003	2.945243e-008
6.249999823237928e-011	1.054270e-003	5.890486e-008
1.249999964647586e-010	9.911208e-004	1.178097e-007
2.499999929295171e-010	9.355200e-004	2.356194e-007
4.999999858590343e-010	8.789601e-004	4.712389e-007
9.999999717180685e-010	8.045151e-004	9.424778e-007
1.999999943436137e-009	6.943738e-004	1.884956e-006
3.999999886872274e-009	5.332542e-004	3.769911e-006
7.999999773744548e-009	2.622659e-004	7.539822e-006
2.559999927598256e-007	-1.585756e-002	2.412639e-004
1.037249992759826e-006	-6.710543e-002	9.768932e-004
2.599749992759826e-006	-1.713669e-001	2.439325e-003
5.724749992759824e-006	-3.824086e-001	5.279855e-003
8.459124992759823e-006	-5.620464e-001	7.602437e-003
1.060756249275983e-005	-6.938513e-001	9.273497e-003
1.256068749275983e-005	-8.024753e-001	1.064697e-002
1.451381249275984e-005	-8.971408e-001	1.186030e-002
1.646693749275983e-005	-9.749728e-001	1.289524e-002
1.822474999275982e-005	-1.028626e+000	1.366124e-002
1.998256249275981e-005	-1.065338e+000	1.426076e-002
2.174037499275980e-005	-1.084215e+000	1.468650e-002
2.349818749275979e-005	-1.084850e+000	1.493327e-002
2.525599999275978e-005	-1.067338e+000	1.499806e-002
2.701381249275977e-005	-1.032259e+000	1.488008e-002
2.896693749275976e-005	-9.739502e-001	1.453647e-002
3.092006249275975e-005	-8.972286e-001	1.397421e-002
3.287318749275974e-005	-8.045706e-001	1.320176e-002
3.502162499275972e-005	-6.876197e-001	1.212326e-002
3.736537499275971e-005	-5.466931e-001	1.069594e-002
3.990443749275969e-005	-3.843040e-001	8.889484e-003
4.263881249275968e-005	-2.053046e-001	6.693032e-003
4.459193749275967e-005	-7.872328e-002	4.999458e-003
4.537318749275966e-005	-2.898994e-002	4.299505e-003
4.576381249275966e-005	-4.381014e-003	3.945538e-003
4.595912499275966e-005	7.852456e-003	3.767649e-003
4.654506249275965e-005	4.424758e-002	3.230688e-003
4.732631249275965e-005	9.199924e-002	2.508055e-003
4.849818749275964e-005	1.617641e-001	1.413325e-003
4.986537499275963e-005	2.399800e-001	1.268796e-004
5.142787499275962e-005	3.247023e-001	-1.343936e-003
5.318568749275961e-005	4.135218e-001	-2.982431e-003
5.494349999275960e-005	4.950201e-001	-4.584582e-003
5.689662499275959e-005	5.766326e-001	-6.298399e-003
5.904506249275958e-005	6.553122e-001	-8.073228e-003
6.138881249275957e-005	7.278467e-001	-9.840831e-003
6.373256249275964e-005	7.866544e-001	-1.139541e-002
6.627162499275971e-005	8.351763e-001	-1.280024e-002
6.881068749275978e-005	8.682508e-001	-1.387998e-002
7.134974999275986e-005	8.861573e-001	-1.460721e-002
7.388881249275993e-005	8.890280e-001	-1.496346e-002
7.642787499276000e-005	8.768081e-001	-1.493967e-002
7.896693749276007e-005	8.492475e-001	-1.453647e-002
8.150599999276015e-005	8.059248e-001	-1.376407e-002
8.384974999276021e-005	7.514848e-001	-1.274023e-002
8.599818749276028e-005	6.890159e-001	-1.155879e-002
8.814662499276034e-005	6.142472e-001	-1.016704e-002
9.009974999276039e-005	5.354887e-001	-8.740549e-003
9.185756249276044e-005	4.558722e-001	-7.343653e-003
9.361537499276049e-005	3.681878e-001	-5.857267e-003
9.517787499276054e-005	2.837841e-001	-4.475531e-003
9.654506249276058e-005	2.052812e-001	-3.230688e-003
9.771693749276061e-005	1.348382e-001	-2.144364e-003
9.869349999276064e-005	7.413676e-002	-1.229965e-003
9.947474999276066e-005	2.441206e-002	-4.949466e-004
9.967006249276067e-005	1.183417e-002	-3.109365e-004
9.986537499276067e-005	-7.985858e-004	-1.268796e-004
1.002559999927607e-004	-2.622067e-002	2.412639e-004
1.012325624927607e-004	-9.059112e-002	1.160502e-003
1.033809999927608e-004	-2.350859e-001	3.162604e-003
1.063106874927609e-004	-4.331769e-001	5.793052e-003
1.088497499927609e-004	-5.987141e-001	7.917482e-003
1.109981874927610e-004	-7.287122e-001	9.560044e-003
1.129513124927611e-004	-8.349309e-001	1.090307e-002
1.149044374927611e-004	-9.265078e-001	1.208210e-002
1.168575624927612e-004	-1.000646e+000	1.307940e-002
1.186153749927612e-004	-1.050548e+000	1.380914e-002
1.203731874927613e-004	-1.083205e+000	1.437060e-002
1.221309999927613e-004	-1.097833e+000	1.475694e-002
1.238888124927614e-004	-1.094142e+000	1.496346e-002
1.256466249927614e-004	-1.072340e+000	1.498762e-002
1.275997499927615e-004	-1.027732e+000	1.480033e-002
1.295528749927615e-004	-9.632164e-001	1.439042e-002
1.315059999927616e-004	-8.809512e-001	1.376407e-002
1.336544374927616e-004	-7.730799e-001	1.283643e-002
1.358028749927617e-004	-6.507782e-001	1.167523e-002
1.383419374927618e-004	-4.932388e-001	1.003093e-002
1.408809999927619e-004	-3.279699e-001	8.131872e-003
1.436153749927619e-004	-1.484770e-001	5.857267e-003
1.449825624927620e-004	-6.023042e-002	4.650882e-003
1.455684999927620e-004	-2.297961e-002	4.122832e-003
1.459591249927620e-004	1.625497e-003	3.767649e-003
1.463497499927620e-004	2.603060e-002	3.410198e-003
1.471309999927620e-004	7.418598e-002	2.689348e-003
1.481075624927621e-004	1.330211e-001	1.779380e-003
1.492794374927621e-004	2.013940e-001	6.788822e-004
1.506466249927621e-004	2.777530e-001	-6.092620e-004
1.522091249927622e-004	3.601036e-001	-2.075372e-003
1.539669374927622e-004	4.460133e-001	-3.700159e-003
1.559200624927623e-004	5.326612e-001	-5.451750e-003
1.578731874927623e-004	6.097503e-001	-7.121342e-003
1.600216249927624e-004	6.833758e-001	-8.833259e-003
1.623653749927625e-004	7.503960e-001	-1.051650e-002
1.647091249927625e-004	8.037471e-001	-1.197210e-002
1.672481874927626e-004	8.464463e-001	-1.325568e-002
1.697872499927627e-004	8.737738e-001	-1.420261e-002
1.723263124927628e-004	8.859617e-001	-1.478884e-002
1.748653749927628e-004	8.830751e-001	-1.499946e-002
1.774044374927629e-004	8.649852e-001	-1.482915e-002
1.799434999927630e-004	8.313724e-001	-1.428221e-002
1.822872499927630e-004	7.861609e-001	-1.345493e-002
1.846309999927631e-004	7.268888e-001	-1.233639e-002
1.867794374927632e-004	6.598502e-001	-1.107578e-002
1.889278749927632e-004	5.804210e-001	-9.613638e-003
1.908809999927633e-004	4.974102e-001	-8.131872e-003
1.926388124927633e-004	4.140251e-001	-6.693032e-003
1.942013124927634e-004	3.332350e-001	-5.345022e-003
1.957638124927634e-004	2.465109e-001	-3.945538e-003
1.963497499927634e-004	2.125530e-001	-3.410198e-003
1.975216249927635e-004	1.424611e-001	-2.326385e-003
1.984981874927635e-004	8.201085e-002	-1.413325e-003
1.992794374927635e-004	3.245643e-002	-6.788822e-004
1.996700624927635e-004	7.319820e-003	-3.109365e-004
1.998653749927635e-004	-5.327639e-003	-1.268796e-004
2.000000000000000e-004	-1.407019e-002	1.929747e-017
