#Digilent WaveForms Logic Analyzer Acquisition
#Device Name: Discovery2
#Serial Number: SN:210321AA2D13
#Date Time: 2024-02-01 11:03:42.560
#Sample rate: 3.33333e+07Hz
#Samples: 4096

Time (s),Vin,Inv1,Inv2,Inv3
-7.899e-05,0,1,0,0
-7.896e-05,0,1,0,0
-7.893e-05,0,1,0,0
-7.890000000000001e-05,0,1,0,0
-7.887000000000001e-05,0,1,0,0
-7.884e-05,0,1,0,0
-7.881e-05,0,1,0,0
-7.878e-05,0,1,0,0
-7.875e-05,0,1,0,0
-7.872000000000001e-05,0,1,0,0
-7.869000000000001e-05,0,1,0,0
-7.866000000000001e-05,0,1,0,0
-7.863e-05,0,1,0,0
-7.86e-05,0,1,0,0
-7.857e-05,0,1,0,0
-7.854e-05,0,1,0,0
-7.851000000000001e-05,0,1,0,0
-7.848000000000001e-05,0,1,0,0
-7.845000000000001e-05,0,1,0,0
-7.842e-05,0,1,0,0
-7.839e-05,0,1,0,0
-7.836e-05,0,1,0,0
-7.833e-05,0,1,0,0
-7.830000000000001e-05,0,1,0,0
-7.827000000000001e-05,0,1,0,0
-7.824e-05,0,1,0,0
-7.821e-05,0,1,0,0
-7.818e-05,0,1,0,0
-7.815e-05,0,1,0,0
-7.812e-05,0,1,0,0
-7.809000000000001e-05,0,1,0,0
-7.806000000000001e-05,0,1,0,0
-7.803e-05,0,1,0,0
-7.8e-05,0,1,0,0
-7.797e-05,0,1,0,0
-7.794e-05,0,1,0,0
-7.791e-05,0,1,0,0
-7.788000000000001e-05,0,1,0,0
-7.785000000000001e-05,0,1,0,0
-7.782e-05,0,1,0,0
-7.779e-05,0,1,0,0
-7.776e-05,0,1,0,0
-7.773e-05,0,1,0,0
-7.77e-05,0,1,0,0
-7.767000000000001e-05,0,1,0,0
-7.764000000000001e-05,0,1,0,0
-7.761e-05,0,1,0,0
-7.758e-05,0,1,0,0
-7.755e-05,0,1,0,0
-7.752e-05,0,1,0,0
-7.749000000000001e-05,0,1,0,0
-7.746000000000001e-05,0,1,0,0
-7.743000000000001e-05,0,1,0,0
-7.74e-05,0,1,0,0
-7.737e-05,0,1,0,0
-7.734e-05,0,1,0,0
-7.731e-05,0,1,0,0
-7.728000000000001e-05,0,1,0,0
-7.725000000000001e-05,0,1,0,0
-7.722000000000001e-05,0,1,0,0
-7.719e-05,0,1,0,0
-7.716e-05,0,1,0,1
-7.713e-05,0,1,0,1
-7.71e-05,0,1,0,1
-7.707000000000001e-05,0,1,0,1
-7.704000000000001e-05,0,1,0,1
-7.701e-05,0,1,0,1
-7.698e-05,0,1,0,1
-7.695e-05,0,1,0,1
-7.692e-05,0,1,0,1
-7.689e-05,0,1,0,1
-7.686000000000001e-05,0,1,0,1
-7.683000000000001e-05,0,1,0,1
-7.68e-05,0,1,0,1
-7.677e-05,0,0,0,1
-7.674e-05,0,0,0,1
-7.671e-05,0,0,0,1
-7.668e-05,0,0,0,1
-7.665000000000001e-05,0,0,0,1
-7.662000000000001e-05,0,0,0,1
-7.659e-05,0,0,0,1
-7.656e-05,0,0,0,1
-7.653e-05,0,0,0,1
-7.65e-05,0,0,0,1
-7.647e-05,0,0,0,1
-7.644000000000001e-05,0,0,0,1
-7.641000000000001e-05,0,0,0,1
-7.638e-05,0,0,0,1
-7.635e-05,0,0,0,1
-7.632e-05,0,0,0,1
-7.629e-05,0,0,0,1
-7.626000000000001e-05,0,0,0,1
-7.623000000000001e-05,0,0,0,1
-7.620000000000001e-05,0,0,0,1
-7.617e-05,0,0,0,1
-7.614e-05,0,0,0,1
-7.611e-05,0,0,0,1
-7.608e-05,0,0,0,1
-7.605000000000001e-05,0,0,0,1
-7.602000000000001e-05,0,0,0,1
-7.599000000000001e-05,0,0,0,1
-7.596e-05,0,0,0,1
-7.593e-05,0,0,0,1
-7.59e-05,0,0,0,1
-7.587e-05,0,0,0,1
-7.584000000000001e-05,0,0,0,1
-7.581000000000001e-05,0,0,0,1
-7.578e-05,0,0,0,1
-7.575e-05,0,0,0,1
-7.572e-05,0,0,0,1
-7.569e-05,0,0,0,1
-7.566e-05,0,0,0,1
-7.563000000000001e-05,0,0,0,1
-7.560000000000001e-05,0,0,0,1
-7.557e-05,0,0,0,1
-7.554e-05,0,0,0,1
-7.551e-05,0,0,0,1
-7.548e-05,0,0,0,1
-7.545e-05,0,0,0,1
-7.542000000000001e-05,0,0,0,1
-7.539000000000001e-05,0,0,0,1
-7.536e-05,0,0,0,1
-7.533e-05,0,0,0,1
-7.53e-05,0,0,0,1
-7.527e-05,0,0,0,1
-7.524e-05,0,0,0,1
-7.521000000000001e-05,0,0,0,1
-7.518000000000001e-05,0,0,0,1
-7.515e-05,0,0,0,1
-7.512e-05,0,0,0,1
-7.509e-05,0,0,0,1
-7.506e-05,0,0,0,1
-7.503000000000001e-05,0,0,0,1
-7.500000000000001e-05,0,0,0,1
-7.497000000000001e-05,0,0,0,1
-7.494e-05,0,0,0,1
-7.491e-05,0,0,0,1
-7.488e-05,0,0,0,1
-7.485e-05,0,0,0,1
-7.482000000000001e-05,0,0,0,1
-7.479000000000001e-05,0,0,0,1
-7.476000000000001e-05,0,0,1,1
-7.473e-05,0,0,1,1
-7.47e-05,0,0,1,1
-7.467e-05,0,0,1,1
-7.464e-05,0,0,1,1
-7.461000000000001e-05,0,0,1,1
-7.458000000000001e-05,0,0,1,1
-7.455e-05,0,0,1,1
-7.452e-05,0,0,1,1
-7.449e-05,0,0,1,1
-7.446e-05,0,0,1,1
-7.443e-05,0,0,1,1
-7.440000000000001e-05,0,0,1,1
-7.437000000000001e-05,0,0,1,1
-7.434e-05,0,0,1,1
-7.431e-05,0,0,1,1
-7.428e-05,0,0,1,1
-7.425e-05,0,0,1,1
-7.422e-05,0,0,1,1
-7.419000000000001e-05,0,0,1,1
-7.416000000000001e-05,0,0,1,1
-7.413e-05,0,0,1,1
-7.41e-05,0,0,1,1
-7.407e-05,0,0,1,1
-7.404e-05,0,0,1,1
-7.401e-05,0,0,1,1
-7.398000000000001e-05,0,0,1,1
-7.395000000000001e-05,0,0,1,1
-7.392e-05,0,0,1,1
-7.389e-05,0,0,1,1
-7.386e-05,0,0,1,1
-7.383e-05,0,0,1,1
-7.38e-05,0,0,1,1
-7.377000000000001e-05,0,0,1,1
-7.374000000000001e-05,0,0,1,1
-7.371e-05,0,0,1,1
-7.368e-05,0,0,1,1
-7.365e-05,0,0,1,1
-7.362e-05,0,0,1,1
-7.359000000000001e-05,0,0,1,1
-7.356000000000001e-05,0,0,1,1
-7.353000000000001e-05,0,0,1,1
-7.35e-05,0,0,1,1
-7.347e-05,0,0,1,1
-7.344e-05,0,0,1,1
-7.341e-05,0,0,1,1
-7.338000000000001e-05,0,0,1,1
-7.335000000000001e-05,0,0,1,1
-7.332e-05,0,0,1,1
-7.329e-05,0,0,1,1
-7.326e-05,0,0,1,1
-7.323e-05,0,0,1,1
-7.32e-05,0,0,1,1
-7.317000000000001e-05,0,0,1,1
-7.314000000000001e-05,0,0,1,1
-7.311e-05,0,0,1,1
-7.308e-05,0,0,1,1
-7.305e-05,0,0,1,1
-7.302e-05,0,0,1,1
-7.299e-05,0,0,1,1
-7.296000000000001e-05,0,0,1,1
-7.293000000000001e-05,0,0,1,1
-7.29e-05,0,0,1,1
-7.287e-05,0,0,1,1
-7.284e-05,0,0,1,1
-7.281e-05,0,0,1,1
-7.278e-05,0,0,1,1
-7.275000000000001e-05,0,0,1,1
-7.272000000000001e-05,0,0,1,1
-7.269e-05,0,0,1,1
-7.266e-05,0,0,1,1
-7.263e-05,0,0,1,1
-7.26e-05,0,0,1,1
-7.257e-05,0,0,1,1
-7.254000000000001e-05,0,0,1,1
-7.251000000000001e-05,0,0,1,1
-7.248e-05,0,0,1,1
-7.245e-05,0,0,1,1
-7.242e-05,0,0,1,1
-7.239e-05,0,0,1,1
-7.236000000000001e-05,0,0,1,1
-7.233000000000001e-05,0,0,1,1
-7.230000000000001e-05,0,0,1,1
-7.227e-05,0,0,1,1
-7.224e-05,0,0,1,1
-7.221e-05,0,0,1,1
-7.218e-05,0,0,1,1
-7.215000000000001e-05,0,0,1,1
-7.212000000000001e-05,0,0,1,1
-7.209000000000001e-05,0,0,1,1
-7.206e-05,0,0,1,1
-7.203e-05,0,0,1,1
-7.2e-05,0,0,1,1
-7.197e-05,0,0,1,1
-7.194000000000001e-05,0,0,1,1
-7.191000000000001e-05,0,0,1,1
-7.188e-05,0,0,1,1
-7.185e-05,0,0,1,1
-7.182e-05,0,0,1,1
-7.179e-05,0,0,1,1
-7.176e-05,0,0,1,1
-7.173000000000001e-05,0,0,1,1
-7.170000000000001e-05,0,0,1,1
-7.167e-05,0,0,1,1
-7.164e-05,0,0,1,1
-7.161e-05,0,0,1,1
-7.158e-05,0,0,1,1
-7.155e-05,0,0,1,1
-7.152000000000001e-05,0,0,1,1
-7.149000000000001e-05,0,0,1,1
-7.146e-05,0,0,1,1
-7.143e-05,0,0,1,1
-7.14e-05,0,0,1,1
-7.137e-05,0,0,1,1
-7.134e-05,0,0,1,1
-7.131000000000001e-05,0,0,1,1
-7.128000000000001e-05,0,0,1,1
-7.125e-05,0,0,1,1
-7.122e-05,0,0,1,1
-7.119e-05,0,0,1,1
-7.116e-05,0,0,1,1
-7.113000000000001e-05,0,0,1,1
-7.110000000000001e-05,0,0,1,1
-7.107000000000001e-05,0,0,1,1
-7.104e-05,0,0,1,1
-7.101e-05,0,0,1,1
-7.098e-05,0,0,1,1
-7.095e-05,0,0,1,1
-7.092000000000001e-05,0,0,1,1
-7.089000000000001e-05,0,0,1,1
-7.086000000000001e-05,0,0,1,1
-7.083e-05,0,0,1,1
-7.08e-05,0,0,1,1
-7.077e-05,0,0,1,1
-7.074e-05,0,0,1,1
-7.071000000000001e-05,0,0,1,1
-7.068000000000001e-05,0,0,1,1
-7.065e-05,0,0,1,1
-7.062e-05,0,0,1,1
-7.059e-05,0,0,1,1
-7.056e-05,0,0,1,1
-7.053e-05,0,0,1,1
-7.050000000000001e-05,0,0,1,0
-7.047000000000001e-05,0,0,1,0
-7.044e-05,0,0,1,0
-7.041e-05,0,0,1,0
-7.038e-05,0,0,1,0
-7.035e-05,0,0,1,0
-7.032e-05,0,0,1,0
-7.029000000000001e-05,0,0,1,0
-7.026000000000001e-05,0,0,1,0
-7.023e-05,0,0,1,0
-7.02e-05,0,0,1,0
-7.017e-05,0,0,1,0
-7.014e-05,0,0,1,0
-7.011e-05,0,0,1,0
-7.008000000000001e-05,0,0,1,0
-7.005000000000001e-05,0,0,1,0
-7.002e-05,0,0,1,0
-6.999e-05,0,0,1,0
-6.996e-05,0,0,1,0
-6.993e-05,0,0,1,0
-6.99e-05,0,0,1,0
-6.987000000000001e-05,0,0,1,0
-6.984000000000001e-05,0,0,1,0
-6.981e-05,0,0,1,0
-6.978e-05,0,0,1,0
-6.975e-05,0,0,1,0
-6.972e-05,0,0,1,0
-6.969000000000001e-05,0,0,1,0
-6.966000000000001e-05,0,0,1,0
-6.963000000000001e-05,0,0,1,0
-6.96e-05,0,0,1,0
-6.957e-05,0,0,1,0
-6.954e-05,0,0,1,0
-6.951e-05,0,0,1,0
-6.948000000000001e-05,0,0,1,0
-6.945000000000001e-05,0,0,1,0
-6.942e-05,0,0,1,0
-6.939e-05,0,0,1,0
-6.936e-05,0,0,1,0
-6.933e-05,0,0,1,0
-6.93e-05,0,0,1,0
-6.927000000000001e-05,0,0,1,0
-6.924000000000001e-05,0,0,1,0
-6.921e-05,0,0,1,0
-6.918e-05,0,0,1,0
-6.915e-05,0,0,1,0
-6.912e-05,0,0,1,0
-6.909e-05,0,0,1,0
-6.906000000000001e-05,0,0,1,0
-6.903000000000001e-05,0,0,1,0
-6.9e-05,0,0,1,0
-6.897e-05,0,0,1,0
-6.894e-05,0,0,1,0
-6.891e-05,0,0,1,0
-6.888e-05,0,0,1,0
-6.885000000000001e-05,0,0,1,0
-6.882000000000001e-05,0,0,1,0
-6.879e-05,0,0,1,0
-6.876e-05,0,0,1,0
-6.873e-05,0,0,1,0
-6.87e-05,0,0,1,0
-6.867e-05,0,0,1,0
-6.864000000000001e-05,0,0,1,0
-6.861000000000001e-05,0,0,1,0
-6.858e-05,0,0,1,0
-6.855e-05,0,0,1,0
-6.852e-05,0,0,1,0
-6.849e-05,0,0,1,0
-6.846000000000001e-05,0,0,1,0
-6.843000000000001e-05,0,0,1,0
-6.840000000000001e-05,0,0,1,0
-6.837e-05,0,0,1,0
-6.834e-05,0,1,1,0
-6.831e-05,0,1,1,0
-6.828e-05,0,1,1,0
-6.825000000000001e-05,0,1,1,0
-6.822000000000001e-05,0,1,1,0
-6.819e-05,0,1,1,0
-6.816e-05,0,1,1,0
-6.813e-05,0,1,1,0
-6.81e-05,0,1,1,0
-6.807e-05,0,1,1,0
-6.804000000000001e-05,0,1,1,0
-6.801000000000001e-05,0,1,1,0
-6.798e-05,0,1,1,0
-6.795e-05,0,1,1,0
-6.792e-05,0,1,1,0
-6.789e-05,0,1,1,0
-6.786e-05,0,1,1,0
-6.783000000000001e-05,0,1,1,0
-6.780000000000001e-05,0,1,1,0
-6.777e-05,0,1,1,0
-6.774e-05,0,1,1,0
-6.771e-05,0,1,1,0
-6.768e-05,0,1,1,0
-6.765e-05,0,1,1,0
-6.762000000000001e-05,0,1,1,0
-6.759000000000001e-05,0,1,1,0
-6.756e-05,0,1,1,0
-6.753e-05,0,1,1,0
-6.75e-05,0,1,1,0
-6.747e-05,0,1,1,0
-6.744e-05,0,1,1,0
-6.741000000000001e-05,0,1,1,0
-6.738000000000001e-05,0,1,1,0
-6.735e-05,0,1,1,0
-6.732e-05,0,1,1,0
-6.729e-05,0,1,1,0
-6.726e-05,0,1,1,0
-6.723000000000001e-05,0,1,1,0
-6.720000000000001e-05,0,1,1,0
-6.717000000000001e-05,0,1,1,0
-6.714e-05,0,1,1,0
-6.711e-05,0,1,1,0
-6.708e-05,0,1,1,0
-6.705e-05,0,1,1,0
-6.702000000000001e-05,0,1,1,0
-6.699000000000001e-05,0,1,1,0
-6.696e-05,0,1,1,0
-6.693e-05,0,1,1,0
-6.69e-05,0,1,1,0
-6.687e-05,0,1,1,0
-6.684e-05,0,1,1,0
-6.681000000000001e-05,0,1,1,0
-6.678000000000001e-05,0,1,1,0
-6.675e-05,0,1,1,0
-6.672e-05,0,1,1,0
-6.669e-05,0,1,1,0
-6.666e-05,0,1,1,0
-6.663e-05,0,1,1,0
-6.660000000000001e-05,0,1,1,0
-6.657000000000001e-05,0,1,1,0
-6.654e-05,0,1,1,0
-6.651e-05,0,1,1,0
-6.648e-05,0,1,1,0
-6.645e-05,0,1,1,0
-6.642e-05,0,1,1,0
-6.639000000000001e-05,0,1,1,0
-6.636000000000001e-05,0,1,1,0
-6.633e-05,0,1,1,0
-6.63e-05,0,1,1,0
-6.627e-05,0,1,1,0
-6.624e-05,0,1,1,0
-6.621e-05,0,1,1,0
-6.618000000000001e-05,0,1,1,0
-6.615000000000001e-05,0,1,1,0
-6.612e-05,0,1,1,0
-6.609e-05,0,1,1,0
-6.606e-05,0,1,1,0
-6.603e-05,0,1,1,0
-6.600000000000001e-05,0,1,1,0
-6.597000000000001e-05,0,1,1,0
-6.594000000000001e-05,0,1,1,0
-6.591e-05,0,1,1,0
-6.588e-05,0,1,1,0
-6.585e-05,0,1,1,0
-6.582e-05,0,1,1,0
-6.579000000000001e-05,0,1,1,0
-6.576000000000001e-05,0,1,1,0
-6.573e-05,0,1,1,0
-6.57e-05,0,1,1,0
-6.567e-05,0,1,1,0
-6.564e-05,0,1,1,0
-6.561e-05,0,1,1,0
-6.558000000000001e-05,0,1,1,0
-6.555000000000001e-05,0,1,1,0
-6.552e-05,0,1,1,0
-6.549e-05,0,1,1,0
-6.546e-05,0,1,1,0
-6.543e-05,0,1,1,0
-6.54e-05,0,1,1,0
-6.537000000000001e-05,0,1,1,0
-6.534000000000001e-05,0,1,1,0
-6.531e-05,0,1,1,0
-6.528e-05,0,1,1,0
-6.525e-05,0,1,1,0
-6.522e-05,0,1,1,0
-6.519e-05,0,1,1,0
-6.516000000000001e-05,0,1,1,0
-6.513000000000001e-05,0,1,1,0
-6.51e-05,0,1,1,0
-6.507e-05,0,1,1,0
-6.504e-05,0,1,1,0
-6.501e-05,0,1,1,0
-6.498e-05,0,1,1,0
-6.495000000000001e-05,0,1,1,0
-6.492000000000001e-05,0,1,1,0
-6.489e-05,0,1,1,0
-6.486e-05,0,1,1,0
-6.483e-05,0,1,1,0
-6.48e-05,0,1,1,0
-6.477e-05,0,1,1,0
-6.474000000000001e-05,0,1,1,0
-6.471000000000001e-05,0,1,1,0
-6.468e-05,0,1,1,0
-6.465e-05,0,1,1,0
-6.462e-05,0,1,1,0
-6.459e-05,0,1,1,0
-6.456000000000001e-05,0,1,1,0
-6.453000000000001e-05,0,1,1,0
-6.45e-05,0,1,1,0
-6.447e-05,0,1,1,0
-6.444e-05,0,1,1,0
-6.441e-05,0,1,1,0
-6.438e-05,0,1,1,0
-6.435000000000001e-05,0,1,1,0
-6.432000000000001e-05,0,1,1,0
-6.429e-05,0,1,1,0
-6.426e-05,0,1,1,0
-6.423e-05,0,1,1,0
-6.42e-05,0,1,1,0
-6.417e-05,0,1,1,0
-6.414000000000001e-05,0,1,1,0
-6.411000000000001e-05,0,1,1,0
-6.408e-05,0,1,1,0
-6.405e-05,0,1,0,0
-6.402e-05,0,1,0,0
-6.399e-05,0,1,0,0
-6.396e-05,0,1,0,0
-6.393000000000001e-05,0,1,0,0
-6.390000000000001e-05,0,1,0,0
-6.387e-05,0,1,0,0
-6.384e-05,0,1,0,0
-6.381e-05,0,1,0,0
-6.378e-05,0,1,0,0
-6.375e-05,0,1,0,0
-6.372000000000001e-05,0,1,0,0
-6.369000000000001e-05,0,1,0,0
-6.366e-05,0,1,0,0
-6.363e-05,0,1,0,0
-6.36e-05,0,1,0,0
-6.357e-05,0,1,0,0
-6.354e-05,0,1,0,0
-6.351000000000001e-05,0,1,0,0
-6.348000000000001e-05,0,1,0,0
-6.345e-05,0,1,0,0
-6.342e-05,0,1,0,0
-6.339e-05,0,1,0,0
-6.336e-05,0,1,0,0
-6.333000000000001e-05,0,1,0,0
-6.330000000000001e-05,0,1,0,0
-6.327e-05,0,1,0,0
-6.324e-05,0,1,0,0
-6.321e-05,0,1,0,0
-6.318e-05,0,1,0,0
-6.315e-05,0,1,0,0
-6.312000000000001e-05,0,1,0,0
-6.309000000000001e-05,0,1,0,0
-6.306e-05,0,1,0,0
-6.303e-05,0,1,0,0
-6.3e-05,0,1,0,0
-6.297e-05,0,1,0,0
-6.294e-05,0,1,0,0
-6.291000000000001e-05,0,1,0,0
-6.288000000000001e-05,0,1,0,0
-6.285e-05,0,1,0,0
-6.282e-05,0,1,0,0
-6.279e-05,0,1,0,0
-6.276e-05,0,1,0,0
-6.273e-05,0,1,0,0
-6.270000000000001e-05,0,1,0,0
-6.267000000000001e-05,0,1,0,0
-6.264e-05,0,1,0,0
-6.261e-05,0,1,0,0
-6.258e-05,0,1,0,0
-6.255e-05,0,1,0,0
-6.252e-05,0,1,0,0
-6.249000000000001e-05,0,1,0,0
-6.246000000000001e-05,0,1,0,0
-6.243e-05,0,1,0,0
-6.24e-05,0,1,0,0
-6.237e-05,0,1,0,0
-6.234e-05,0,1,0,0
-6.231e-05,0,1,0,0
-6.228000000000001e-05,0,1,0,0
-6.225000000000001e-05,0,1,0,0
-6.222e-05,0,1,0,0
-6.219e-05,0,1,0,0
-6.216e-05,0,1,0,0
-6.213e-05,0,1,0,0
-6.210000000000001e-05,0,1,0,0
-6.207000000000001e-05,0,1,0,0
-6.204e-05,0,1,0,0
-6.201e-05,0,1,0,0
-6.198e-05,0,1,0,0
-6.195e-05,0,1,0,0
-6.192e-05,0,1,0,0
-6.189000000000001e-05,0,1,0,0
-6.186000000000001e-05,0,1,0,0
-6.183e-05,0,1,0,0
-6.18e-05,0,1,0,0
-6.177e-05,0,1,0,0
-6.174e-05,0,1,0,0
-6.171e-05,0,1,0,0
-6.168000000000001e-05,0,1,0,0
-6.165000000000001e-05,0,1,0,0
-6.162e-05,0,1,0,0
-6.159e-05,0,1,0,0
-6.156e-05,0,1,0,0
-6.153e-05,0,1,0,0
-6.15e-05,0,1,0,0
-6.147000000000001e-05,0,1,0,0
-6.144000000000001e-05,0,1,0,0
-6.141e-05,0,1,0,0
-6.138e-05,0,1,0,0
-6.135e-05,0,1,0,0
-6.132e-05,0,1,0,0
-6.129e-05,0,1,0,0
-6.126000000000001e-05,0,1,0,1
-6.123000000000001e-05,0,1,0,1
-6.12e-05,0,1,0,1
-6.117e-05,0,1,0,1
-6.114e-05,0,1,0,1
-6.111e-05,0,1,0,1
-6.108e-05,0,1,0,1
-6.105000000000001e-05,0,1,0,1
-6.102e-05,0,1,0,1
-6.099e-05,0,1,0,1
-6.096e-05,0,1,0,1
-6.093e-05,0,1,0,1
-6.09e-05,0,1,0,1
-6.087000000000001e-05,0,0,0,1
-6.084e-05,0,0,0,1
-6.081e-05,0,0,0,1
-6.078e-05,0,0,0,1
-6.075e-05,0,0,0,1
-6.072e-05,0,0,0,1
-6.069e-05,0,0,0,1
-6.066000000000001e-05,0,0,0,1
-6.063e-05,0,0,0,1
-6.06e-05,0,0,0,1
-6.057e-05,0,0,0,1
-6.054e-05,0,0,0,1
-6.051e-05,0,0,0,1
-6.048e-05,0,0,0,1
-6.045e-05,0,0,0,1
-6.042e-05,0,0,0,1
-6.039e-05,0,0,0,1
-6.036e-05,0,0,0,1
-6.033e-05,0,0,0,1
-6.03e-05,0,0,0,1
-6.027e-05,0,0,0,1
-6.024e-05,0,0,0,1
-6.021e-05,0,0,0,1
-6.018e-05,0,0,0,1
-6.015000000000001e-05,0,0,0,1
-6.012e-05,0,0,0,1
-6.009e-05,0,0,0,1
-6.006e-05,0,0,0,1
-6.003e-05,0,0,0,1
-6e-05,0,0,0,1
-5.997e-05,0,0,0,1
-5.994000000000001e-05,0,0,0,1
-5.991e-05,0,0,0,1
-5.988e-05,0,0,0,1
-5.985e-05,0,0,0,1
-5.982e-05,0,0,0,1
-5.979e-05,0,0,0,1
-5.976e-05,0,0,0,1
-5.973e-05,0,0,0,1
-5.97e-05,0,0,0,1
-5.967e-05,0,0,0,1
-5.964e-05,0,0,0,1
-5.961e-05,0,0,0,1
-5.958e-05,0,0,0,1
-5.955e-05,0,0,0,1
-5.952e-05,0,0,0,1
-5.949e-05,0,0,0,1
-5.946e-05,0,0,0,1
-5.943000000000001e-05,0,0,0,1
-5.94e-05,0,0,0,1
-5.937e-05,0,0,0,1
-5.934e-05,0,0,0,1
-5.931e-05,0,0,0,1
-5.928e-05,0,0,0,1
-5.925e-05,0,0,0,1
-5.922e-05,0,0,0,1
-5.919e-05,0,0,0,1
-5.916e-05,0,0,0,1
-5.913e-05,0,0,0,1
-5.91e-05,0,0,0,1
-5.907e-05,0,0,0,1
-5.904e-05,0,0,0,1
-5.901e-05,0,0,0,1
-5.898e-05,0,0,0,1
-5.895e-05,0,0,0,1
-5.892000000000001e-05,0,0,0,1
-5.889e-05,0,0,0,1
-5.886e-05,0,0,1,1
-5.883e-05,0,0,1,1
-5.88e-05,0,0,1,1
-5.877e-05,0,0,1,1
-5.874e-05,0,0,1,1
-5.871000000000001e-05,0,0,1,1
-5.868e-05,0,0,1,1
-5.865e-05,0,0,1,1
-5.862e-05,0,0,1,1
-5.859e-05,0,0,1,1
-5.856e-05,0,0,1,1
-5.853e-05,0,0,1,1
-5.85e-05,0,0,1,1
-5.847e-05,0,0,1,1
-5.844e-05,0,0,1,1
-5.841e-05,0,0,1,1
-5.838e-05,0,0,1,1
-5.835e-05,0,0,1,1
-5.832e-05,0,0,1,1
-5.829e-05,0,0,1,1
-5.826e-05,0,0,1,1
-5.823e-05,0,0,1,1
-5.820000000000001e-05,0,0,1,1
-5.817e-05,0,0,1,1
-5.814e-05,0,0,1,1
-5.811e-05,0,0,1,1
-5.808e-05,0,0,1,1
-5.805e-05,0,0,1,1
-5.802e-05,0,0,1,1
-5.799000000000001e-05,0,0,1,1
-5.796e-05,0,0,1,1
-5.793e-05,0,0,1,1
-5.79e-05,0,0,1,1
-5.787e-05,0,0,1,1
-5.784e-05,0,0,1,1
-5.781e-05,0,0,1,1
-5.778e-05,0,0,1,1
-5.775e-05,0,0,1,1
-5.772e-05,0,0,1,1
-5.769000000000001e-05,0,0,1,1
-5.766e-05,0,0,1,1
-5.763e-05,0,0,1,1
-5.76e-05,0,0,1,1
-5.757e-05,0,0,1,1
-5.754e-05,0,0,1,1
-5.751e-05,0,0,1,1
-5.748000000000001e-05,0,0,1,1
-5.745e-05,0,0,1,1
-5.742e-05,0,0,1,1
-5.739e-05,0,0,1,1
-5.736e-05,0,0,1,1
-5.733e-05,0,0,1,1
-5.73e-05,0,0,1,1
-5.727e-05,0,0,1,1
-5.724e-05,0,0,1,1
-5.721e-05,0,0,1,1
-5.718e-05,0,0,1,1
-5.715e-05,0,0,1,1
-5.712e-05,0,0,1,1
-5.709e-05,0,0,1,1
-5.706e-05,0,0,1,1
-5.703e-05,0,0,1,1
-5.7e-05,0,0,1,1
-5.697000000000001e-05,0,0,1,1
-5.694e-05,0,0,1,1
-5.691e-05,0,0,1,1
-5.688e-05,0,0,1,1
-5.685e-05,0,0,1,1
-5.682e-05,0,0,1,1
-5.679e-05,0,0,1,1
-5.676000000000001e-05,0,0,1,1
-5.673e-05,0,0,1,1
-5.67e-05,0,0,1,1
-5.667e-05,0,0,1,1
-5.664e-05,0,0,1,1
-5.661e-05,0,0,1,1
-5.658e-05,0,0,1,1
-5.655e-05,0,0,1,1
-5.652e-05,0,0,1,1
-5.649e-05,0,0,1,1
-5.646e-05,0,0,1,1
-5.643e-05,0,0,1,1
-5.64e-05,0,0,1,1
-5.637e-05,0,0,1,1
-5.634e-05,0,0,1,1
-5.631e-05,0,0,1,1
-5.628e-05,0,0,1,1
-5.625000000000001e-05,0,0,1,1
-5.622e-05,0,0,1,1
-5.619e-05,0,0,1,1
-5.616e-05,0,0,1,1
-5.613e-05,0,0,1,1
-5.61e-05,0,0,1,1
-5.607e-05,0,0,1,1
-5.604e-05,0,0,1,1
-5.601e-05,0,0,1,1
-5.598e-05,0,0,1,1
-5.595e-05,0,0,1,1
-5.592e-05,0,0,1,1
-5.589e-05,0,0,1,1
-5.586e-05,0,0,1,1
-5.583e-05,0,0,1,1
-5.58e-05,0,0,1,1
-5.577e-05,0,0,1,1
-5.574000000000001e-05,0,0,1,1
-5.571e-05,0,0,1,1
-5.568e-05,0,0,1,1
-5.565e-05,0,0,1,1
-5.562e-05,0,0,1,1
-5.559e-05,0,0,1,1
-5.556e-05,0,0,1,1
-5.553000000000001e-05,0,0,1,1
-5.55e-05,0,0,1,1
-5.547e-05,0,0,1,1
-5.544e-05,0,0,1,1
-5.541e-05,0,0,1,1
-5.538e-05,0,0,1,1
-5.535e-05,0,0,1,1
-5.532e-05,0,0,1,1
-5.529e-05,0,0,1,1
-5.526e-05,0,0,1,1
-5.523e-05,0,0,1,1
-5.52e-05,0,0,1,1
-5.517e-05,0,0,1,1
-5.514e-05,0,0,1,1
-5.511e-05,0,0,1,1
-5.508e-05,0,0,1,1
-5.505e-05,0,0,1,1
-5.502000000000001e-05,0,0,1,1
-5.499e-05,0,0,1,1
-5.496e-05,0,0,1,1
-5.493e-05,0,0,1,1
-5.49e-05,0,0,1,1
-5.487e-05,0,0,1,1
-5.484e-05,0,0,1,1
-5.481e-05,0,0,1,1
-5.478e-05,0,0,1,1
-5.475e-05,0,0,1,1
-5.472e-05,0,0,1,1
-5.469e-05,0,0,1,1
-5.466e-05,0,0,1,1
-5.463e-05,0,0,1,1
-5.46e-05,0,0,1,0
-5.457e-05,0,0,1,0
-5.454e-05,0,0,1,0
-5.451e-05,0,0,1,0
-5.448e-05,0,0,1,0
-5.445e-05,0,0,1,0
-5.442e-05,0,0,1,0
-5.439e-05,0,0,1,0
-5.436e-05,0,0,1,0
-5.433e-05,0,0,1,0
-5.430000000000001e-05,0,0,1,0
-5.427e-05,0,0,1,0
-5.424e-05,0,0,1,0
-5.421e-05,0,0,1,0
-5.418e-05,0,0,1,0
-5.415e-05,0,0,1,0
-5.412e-05,0,0,1,0
-5.409e-05,0,0,1,0
-5.406e-05,0,0,1,0
-5.403e-05,0,0,1,0
-5.4e-05,0,0,1,0
-5.397e-05,0,0,1,0
-5.394e-05,0,0,1,0
-5.391e-05,0,0,1,0
-5.388e-05,0,0,1,0
-5.385e-05,0,0,1,0
-5.382e-05,0,0,1,0
-5.379000000000001e-05,0,0,1,0
-5.376e-05,0,0,1,0
-5.373e-05,0,0,1,0
-5.37e-05,0,0,1,0
-5.367e-05,0,0,1,0
-5.364e-05,0,0,1,0
-5.361e-05,0,0,1,0
-5.358e-05,0,0,1,0
-5.355e-05,0,0,1,0
-5.352e-05,0,0,1,0
-5.349e-05,0,0,1,0
-5.346e-05,0,0,1,0
-5.343e-05,0,0,1,0
-5.34e-05,0,0,1,0
-5.337e-05,0,0,1,0
-5.334e-05,0,0,1,0
-5.331e-05,0,0,1,0
-5.328e-05,0,0,1,0
-5.325e-05,0,0,1,0
-5.322e-05,0,0,1,0
-5.319e-05,0,0,1,0
-5.316e-05,0,0,1,0
-5.313e-05,0,0,1,0
-5.31e-05,0,0,1,0
-5.307000000000001e-05,0,0,1,0
-5.304e-05,0,0,1,0
-5.301e-05,0,0,1,0
-5.298e-05,0,0,1,0
-5.295e-05,0,0,1,0
-5.292e-05,0,0,1,0
-5.289e-05,0,0,1,0
-5.286e-05,0,0,1,0
-5.283e-05,0,0,1,0
-5.28e-05,0,0,1,0
-5.277e-05,0,0,1,0
-5.274e-05,0,0,1,0
-5.271e-05,0,0,1,0
-5.268e-05,0,0,1,0
-5.265e-05,0,0,1,0
-5.262e-05,0,0,1,0
-5.259e-05,0,0,1,0
-5.256e-05,0,0,1,0
-5.253e-05,0,0,1,0
-5.25e-05,0,0,1,0
-5.247e-05,0,0,1,0
-5.244e-05,0,1,1,0
-5.241e-05,0,1,1,0
-5.238e-05,0,1,1,0
-5.235000000000001e-05,0,1,1,0
-5.232e-05,0,1,1,0
-5.229e-05,0,1,1,0
-5.226e-05,0,1,1,0
-5.223e-05,0,1,1,0
-5.22e-05,0,1,1,0
-5.217e-05,0,1,1,0
-5.214e-05,0,1,1,0
-5.211e-05,0,1,1,0
-5.208e-05,0,1,1,0
-5.205e-05,0,1,1,0
-5.202e-05,0,1,1,0
-5.199e-05,0,1,1,0
-5.196e-05,0,1,1,0
-5.193e-05,0,1,1,0
-5.19e-05,0,1,1,0
-5.187e-05,0,1,1,0
-5.184000000000001e-05,0,1,1,0
-5.181e-05,0,1,1,0
-5.178e-05,0,1,1,0
-5.175e-05,0,1,1,0
-5.172e-05,0,1,1,0
