vdd	V(vgs)	V(vo)	I(Rd)
Step Information: Vin=2.19  (Run: 1/3)
0.000000000000000e+000	2.190000e+000	2.715723e-028	-1.357862e-030
5.000000000000000e-002	2.190000e+000	1.085333e-003	2.445733e-004
1.000000000000000e-001	2.190000e+000	2.213932e-003	4.889303e-004
1.500000000000000e-001	2.190000e+000	3.391470e-003	7.330427e-004
2.000000000000000e-001	2.190000e+000	4.624906e-003	9.768754e-004
2.500000000000000e-001	2.190000e+000	5.923055e-003	1.220385e-003
3.000000000000000e-001	2.190000e+000	7.297321e-003	1.463513e-003
3.500000000000000e-001	2.190000e+000	8.762912e-003	1.706185e-003
4.000000000000000e-001	2.190000e+000	1.034089e-002	1.948296e-003
4.500000000000000e-001	2.190000e+000	1.206189e-002	2.189690e-003
4.999999999999999e-001	2.190000e+000	1.397366e-002	2.430132e-003
5.499999999999999e-001	2.190000e+000	1.615818e-002	2.669209e-003
6.000000000000000e-001	2.190000e+000	1.878022e-002	2.906099e-003
6.500000000000000e-001	2.190000e+000	2.233872e-002	3.138306e-003
7.000000000000001e-001	2.190000e+000	3.950729e-002	3.302464e-003
7.500000000000001e-001	2.190000e+000	8.950729e-002	3.302464e-003
8.000000000000002e-001	2.190000e+000	1.395073e-001	3.302464e-003
8.500000000000002e-001	2.190000e+000	1.895073e-001	3.302464e-003
9.000000000000002e-001	2.190000e+000	2.395073e-001	3.302464e-003
9.500000000000003e-001	2.190000e+000	2.895073e-001	3.302464e-003
1.000000000000000e+000	2.190000e+000	3.395073e-001	3.302464e-003
1.050000000000000e+000	2.190000e+000	3.895073e-001	3.302464e-003
1.100000000000000e+000	2.190000e+000	4.395073e-001	3.302464e-003
1.150000000000000e+000	2.190000e+000	4.895073e-001	3.302464e-003
1.200000000000000e+000	2.190000e+000	5.395073e-001	3.302464e-003
1.250000000000000e+000	2.190000e+000	5.895073e-001	3.302464e-003
1.300000000000001e+000	2.190000e+000	6.395073e-001	3.302464e-003
1.350000000000001e+000	2.190000e+000	6.895073e-001	3.302464e-003
1.400000000000001e+000	2.190000e+000	7.395073e-001	3.302464e-003
1.450000000000001e+000	2.190000e+000	7.895073e-001	3.302464e-003
1.500000000000001e+000	2.190000e+000	8.395073e-001	3.302464e-003
1.550000000000001e+000	2.190000e+000	8.895073e-001	3.302464e-003
1.600000000000001e+000	2.190000e+000	9.395073e-001	3.302464e-003
1.650000000000001e+000	2.190000e+000	9.895073e-001	3.302464e-003
1.700000000000001e+000	2.190000e+000	1.039507e+000	3.302464e-003
1.750000000000001e+000	2.190000e+000	1.089507e+000	3.302464e-003
1.800000000000001e+000	2.190000e+000	1.139507e+000	3.302464e-003
1.850000000000001e+000	2.190000e+000	1.189507e+000	3.302464e-003
1.900000000000001e+000	2.190000e+000	1.239507e+000	3.302464e-003
1.950000000000001e+000	2.190000e+000	1.289507e+000	3.302464e-003
2.000000000000001e+000	2.190000e+000	1.339507e+000	3.302464e-003
2.050000000000001e+000	2.190000e+000	1.389507e+000	3.302464e-003
2.100000000000001e+000	2.190000e+000	1.439507e+000	3.302464e-003
2.150000000000000e+000	2.190000e+000	1.489507e+000	3.302464e-003
2.200000000000000e+000	2.190000e+000	1.539507e+000	3.302464e-003
2.250000000000000e+000	2.190000e+000	1.589507e+000	3.302464e-003
2.300000000000000e+000	2.190000e+000	1.639507e+000	3.302464e-003
2.350000000000000e+000	2.190000e+000	1.689507e+000	3.302464e-003
2.400000000000000e+000	2.190000e+000	1.739507e+000	3.302464e-003
2.449999999999999e+000	2.190000e+000	1.789507e+000	3.302464e-003
2.499999999999999e+000	2.190000e+000	1.839507e+000	3.302464e-003
2.549999999999999e+000	2.190000e+000	1.889507e+000	3.302464e-003
2.599999999999999e+000	2.190000e+000	1.939507e+000	3.302464e-003
2.649999999999999e+000	2.190000e+000	1.989507e+000	3.302464e-003
2.699999999999998e+000	2.190000e+000	2.039507e+000	3.302464e-003
2.749999999999998e+000	2.190000e+000	2.089507e+000	3.302464e-003
2.799999999999998e+000	2.190000e+000	2.139507e+000	3.302464e-003
2.849999999999998e+000	2.190000e+000	2.189507e+000	3.302464e-003
2.899999999999998e+000	2.190000e+000	2.239507e+000	3.302464e-003
2.949999999999998e+000	2.190000e+000	2.289507e+000	3.302464e-003
2.999999999999997e+000	2.190000e+000	2.339507e+000	3.302464e-003
3.049999999999997e+000	2.190000e+000	2.389507e+000	3.302464e-003
3.099999999999997e+000	2.190000e+000	2.439507e+000	3.302464e-003
3.149999999999997e+000	2.190000e+000	2.489507e+000	3.302464e-003
3.199999999999997e+000	2.190000e+000	2.539507e+000	3.302464e-003
3.249999999999996e+000	2.190000e+000	2.589507e+000	3.302464e-003
3.299999999999996e+000	2.190000e+000	2.639507e+000	3.302464e-003
3.349999999999996e+000	2.190000e+000	2.689507e+000	3.302464e-003
3.399999999999996e+000	2.190000e+000	2.739507e+000	3.302464e-003
3.449999999999996e+000	2.190000e+000	2.789507e+000	3.302464e-003
3.499999999999996e+000	2.190000e+000	2.839507e+000	3.302464e-003
3.549999999999995e+000	2.190000e+000	2.889507e+000	3.302464e-003
3.599999999999995e+000	2.190000e+000	2.939507e+000	3.302464e-003
3.649999999999995e+000	2.190000e+000	2.989507e+000	3.302464e-003
3.699999999999995e+000	2.190000e+000	3.039507e+000	3.302464e-003
3.749999999999995e+000	2.190000e+000	3.089507e+000	3.302464e-003
3.799999999999995e+000	2.190000e+000	3.139507e+000	3.302464e-003
3.849999999999994e+000	2.190000e+000	3.189507e+000	3.302464e-003
3.899999999999994e+000	2.190000e+000	3.239507e+000	3.302464e-003
3.949999999999994e+000	2.190000e+000	3.289507e+000	3.302464e-003
3.999999999999994e+000	2.190000e+000	3.339507e+000	3.302464e-003
4.049999999999994e+000	2.190000e+000	3.389507e+000	3.302464e-003
4.099999999999993e+000	2.190000e+000	3.439507e+000	3.302464e-003
4.149999999999993e+000	2.190000e+000	3.489507e+000	3.302464e-003
4.199999999999993e+000	2.190000e+000	3.539507e+000	3.302464e-003
4.249999999999993e+000	2.190000e+000	3.589507e+000	3.302464e-003
4.299999999999993e+000	2.190000e+000	3.639507e+000	3.302464e-003
4.349999999999993e+000	2.190000e+000	3.689507e+000	3.302464e-003
4.399999999999992e+000	2.190000e+000	3.739507e+000	3.302464e-003
4.449999999999992e+000	2.190000e+000	3.789507e+000	3.302464e-003
4.499999999999992e+000	2.190000e+000	3.839507e+000	3.302464e-003
4.549999999999992e+000	2.190000e+000	3.889507e+000	3.302464e-003
4.599999999999992e+000	2.190000e+000	3.939507e+000	3.302464e-003
4.649999999999992e+000	2.190000e+000	3.989507e+000	3.302464e-003
4.699999999999991e+000	2.190000e+000	4.039507e+000	3.302464e-003
4.749999999999991e+000	2.190000e+000	4.089507e+000	3.302464e-003
4.799999999999991e+000	2.190000e+000	4.139507e+000	3.302464e-003
4.849999999999991e+000	2.190000e+000	4.189507e+000	3.302464e-003
4.899999999999991e+000	2.190000e+000	4.239507e+000	3.302464e-003
4.949999999999990e+000	2.190000e+000	4.289507e+000	3.302464e-003
5.000000000000000e+000	2.190000e+000	4.339507e+000	3.302464e-003
Step Information: Vin=2.23  (Run: 2/3)
0.000000000000000e+000	2.230000e+000	1.869824e-028	-9.349120e-031
5.000000000000000e-002	2.230000e+000	7.713906e-004	2.461431e-004
1.000000000000000e-001	2.230000e+000	1.557848e-003	4.922107e-004
1.500000000000000e-001	2.230000e+000	2.360297e-003	7.381985e-004
2.000000000000000e-001	2.230000e+000	3.179752e-003	9.841012e-004
2.500000000000000e-001	2.230000e+000	4.017345e-003	1.229913e-003
3.000000000000000e-001	2.230000e+000	4.874337e-003	1.475628e-003
3.500000000000000e-001	2.230000e+000	5.752144e-003	1.721239e-003
4.000000000000000e-001	2.230000e+000	6.652363e-003	1.966738e-003
4.500000000000000e-001	2.230000e+000	7.576805e-003	2.212116e-003
4.999999999999999e-001	2.230000e+000	8.527540e-003	2.457362e-003
5.499999999999999e-001	2.230000e+000	9.506949e-003	2.702465e-003
6.000000000000000e-001	2.230000e+000	1.051780e-002	2.947411e-003
6.500000000000000e-001	2.230000e+000	1.156333e-002	3.192183e-003
7.000000000000001e-001	2.230000e+000	1.264738e-002	3.436763e-003
7.500000000000001e-001	2.230000e+000	1.377455e-002	3.681127e-003
8.000000000000002e-001	2.230000e+000	1.495045e-002	3.925248e-003
8.500000000000002e-001	2.230000e+000	1.618200e-002	4.169090e-003
9.000000000000002e-001	2.230000e+000	1.747795e-002	4.412610e-003
9.500000000000003e-001	2.230000e+000	1.884961e-002	4.655752e-003
1.000000000000000e+000	2.230000e+000	2.031204e-002	4.898440e-003
1.050000000000000e+000	2.230000e+000	2.188607e-002	5.140570e-003
1.100000000000000e+000	2.230000e+000	2.360196e-002	5.381990e-003
1.150000000000000e+000	2.230000e+000	2.550671e-002	5.622467e-003
1.200000000000000e+000	2.230000e+000	2.768078e-002	5.861596e-003
1.250000000000000e+000	2.230000e+000	3.028479e-002	6.098576e-003
1.300000000000001e+000	2.230000e+000	3.379691e-002	6.331015e-003
1.350000000000001e+000	2.230000e+000	4.952808e-002	6.502360e-003
1.400000000000001e+000	2.230000e+000	9.952808e-002	6.502360e-003
1.450000000000001e+000	2.230000e+000	1.495281e-001	6.502360e-003
1.500000000000001e+000	2.230000e+000	1.995281e-001	6.502360e-003
1.550000000000001e+000	2.230000e+000	2.495281e-001	6.502360e-003
1.600000000000001e+000	2.230000e+000	2.995281e-001	6.502360e-003
1.650000000000001e+000	2.230000e+000	3.495281e-001	6.502360e-003
1.700000000000001e+000	2.230000e+000	3.995281e-001	6.502360e-003
1.750000000000001e+000	2.230000e+000	4.495281e-001	6.502360e-003
1.800000000000001e+000	2.230000e+000	4.995281e-001	6.502360e-003
1.850000000000001e+000	2.230000e+000	5.495281e-001	6.502360e-003
1.900000000000001e+000	2.230000e+000	5.995281e-001	6.502360e-003
1.950000000000001e+000	2.230000e+000	6.495281e-001	6.502360e-003
2.000000000000001e+000	2.230000e+000	6.995281e-001	6.502360e-003
2.050000000000001e+000	2.230000e+000	7.495281e-001	6.502360e-003
2.100000000000001e+000	2.230000e+000	7.995281e-001	6.502360e-003
2.150000000000000e+000	2.230000e+000	8.495281e-001	6.502360e-003
2.200000000000000e+000	2.230000e+000	8.995281e-001	6.502360e-003
2.250000000000000e+000	2.230000e+000	9.495281e-001	6.502360e-003
2.300000000000000e+000	2.230000e+000	9.995281e-001	6.502360e-003
2.350000000000000e+000	2.230000e+000	1.049528e+000	6.502360e-003
2.400000000000000e+000	2.230000e+000	1.099528e+000	6.502360e-003
2.449999999999999e+000	2.230000e+000	1.149528e+000	6.502360e-003
2.499999999999999e+000	2.230000e+000	1.199528e+000	6.502360e-003
2.549999999999999e+000	2.230000e+000	1.249528e+000	6.502360e-003
2.599999999999999e+000	2.230000e+000	1.299528e+000	6.502360e-003
2.649999999999999e+000	2.230000e+000	1.349528e+000	6.502360e-003
2.699999999999998e+000	2.230000e+000	1.399528e+000	6.502360e-003
2.749999999999998e+000	2.230000e+000	1.449528e+000	6.502360e-003
2.799999999999998e+000	2.230000e+000	1.499528e+000	6.502360e-003
2.849999999999998e+000	2.230000e+000	1.549528e+000	6.502360e-003
2.899999999999998e+000	2.230000e+000	1.599528e+000	6.502360e-003
2.949999999999998e+000	2.230000e+000	1.649528e+000	6.502360e-003
2.999999999999997e+000	2.230000e+000	1.699528e+000	6.502360e-003
3.049999999999997e+000	2.230000e+000	1.749528e+000	6.502360e-003
3.099999999999997e+000	2.230000e+000	1.799528e+000	6.502360e-003
3.149999999999997e+000	2.230000e+000	1.849528e+000	6.502360e-003
3.199999999999997e+000	2.230000e+000	1.899528e+000	6.502360e-003
3.249999999999996e+000	2.230000e+000	1.949528e+000	6.502360e-003
3.299999999999996e+000	2.230000e+000	1.999528e+000	6.502360e-003
3.349999999999996e+000	2.230000e+000	2.049528e+000	6.502360e-003
3.399999999999996e+000	2.230000e+000	2.099528e+000	6.502360e-003
3.449999999999996e+000	2.230000e+000	2.149528e+000	6.502360e-003
3.499999999999996e+000	2.230000e+000	2.199528e+000	6.502360e-003
3.549999999999995e+000	2.230000e+000	2.249528e+000	6.502360e-003
3.599999999999995e+000	2.230000e+000	2.299528e+000	6.502360e-003
3.649999999999995e+000	2.230000e+000	2.349528e+000	6.502360e-003
3.699999999999995e+000	2.230000e+000	2.399528e+000	6.502360e-003
3.749999999999995e+000	2.230000e+000	2.449528e+000	6.502360e-003
3.799999999999995e+000	2.230000e+000	2.499528e+000	6.502360e-003
3.849999999999994e+000	2.230000e+000	2.549528e+000	6.502360e-003
3.899999999999994e+000	2.230000e+000	2.599528e+000	6.502360e-003
3.949999999999994e+000	2.230000e+000	2.649528e+000	6.502360e-003
3.999999999999994e+000	2.230000e+000	2.699528e+000	6.502360e-003
4.049999999999994e+000	2.230000e+000	2.749528e+000	6.502360e-003
4.099999999999993e+000	2.230000e+000	2.799528e+000	6.502360e-003
4.149999999999993e+000	2.230000e+000	2.849528e+000	6.502360e-003
4.199999999999993e+000	2.230000e+000	2.899528e+000	6.502360e-003
4.249999999999993e+000	2.230000e+000	2.949528e+000	6.502360e-003
4.299999999999993e+000	2.230000e+000	2.999528e+000	6.502360e-003
4.349999999999993e+000	2.230000e+000	3.049528e+000	6.502360e-003
4.399999999999992e+000	2.230000e+000	3.099528e+000	6.502360e-003
4.449999999999992e+000	2.230000e+000	3.149528e+000	6.502360e-003
4.499999999999992e+000	2.230000e+000	3.199528e+000	6.502360e-003
4.549999999999992e+000	2.230000e+000	3.249528e+000	6.502360e-003
4.599999999999992e+000	2.230000e+000	3.299528e+000	6.502360e-003
4.649999999999992e+000	2.230000e+000	3.349528e+000	6.502360e-003
4.699999999999991e+000	2.230000e+000	3.399528e+000	6.502360e-003
4.749999999999991e+000	2.230000e+000	3.449528e+000	6.502360e-003
4.799999999999991e+000	2.230000e+000	3.499528e+000	6.502360e-003
4.849999999999991e+000	2.230000e+000	3.549528e+000	6.502360e-003
4.899999999999991e+000	2.230000e+000	3.599528e+000	6.502360e-003
4.949999999999990e+000	2.230000e+000	3.649528e+000	6.502360e-003
5.000000000000000e+000	2.230000e+000	3.699528e+000	6.502360e-003
Step Information: Vin=2.255  (Run: 3/3)
0.000000000000000e+000	2.255000e+000	-1.215706e-025	6.078528e-028
5.000000000000000e-002	2.255000e+000	6.304964e-004	2.468475e-004
1.000000000000000e-001	2.255000e+000	1.269134e-003	4.936543e-004
1.500000000000000e-001	2.255000e+000	1.916237e-003	7.404188e-004
2.000000000000000e-001	2.255000e+000	2.572152e-003	9.871393e-004
2.500000000000000e-001	2.255000e+000	3.237249e-003	1.233814e-003
3.000000000000000e-001	2.255000e+000	3.911926e-003	1.480440e-003
3.500000000000000e-001	2.255000e+000	4.596610e-003	1.727017e-003
4.000000000000000e-001	2.255000e+000	5.291760e-003	1.973541e-003
4.500000000000000e-001	2.255000e+000	5.997872e-003	2.220011e-003
4.999999999999999e-001	2.255000e+000	6.715483e-003	2.466423e-003
5.499999999999999e-001	2.255000e+000	7.445174e-003	2.712774e-003
6.000000000000000e-001	2.255000e+000	8.187576e-003	2.959062e-003
6.500000000000000e-001	2.255000e+000	8.943381e-003	3.205283e-003
7.000000000000001e-001	2.255000e+000	9.713341e-003	3.451433e-003
7.500000000000001e-001	2.255000e+000	1.049828e-002	3.697508e-003
8.000000000000002e-001	2.255000e+000	1.129912e-002	3.943504e-003
8.500000000000002e-001	2.255000e+000	1.211686e-002	4.189416e-003
9.000000000000002e-001	2.255000e+000	1.295262e-002	4.435237e-003
9.500000000000003e-001	2.255000e+000	1.380765e-002	4.680962e-003
1.000000000000000e+000	2.255000e+000	1.468335e-002	4.926583e-003
1.050000000000000e+000	2.255000e+000	1.558129e-002	5.172093e-003
1.100000000000000e+000	2.255000e+000	1.650327e-002	5.417483e-003
1.150000000000000e+000	2.255000e+000	1.745133e-002	5.662743e-003
1.200000000000000e+000	2.255000e+000	1.842782e-002	5.907861e-003
1.250000000000000e+000	2.255000e+000	1.943545e-002	6.152823e-003
1.300000000000001e+000	2.255000e+000	2.047742e-002	6.397613e-003
1.350000000000001e+000	2.255000e+000	2.155750e-002	6.642213e-003
1.400000000000001e+000	2.255000e+000	2.268022e-002	6.886599e-003
1.450000000000001e+000	2.255000e+000	2.385106e-002	7.130745e-003
1.500000000000001e+000	2.255000e+000	2.507680e-002	7.374616e-003
1.550000000000001e+000	2.255000e+000	2.636598e-002	7.618170e-003
1.600000000000001e+000	2.255000e+000	2.772962e-002	7.861352e-003
1.650000000000001e+000	2.255000e+000	2.918235e-002	8.104089e-003
1.700000000000001e+000	2.255000e+000	3.074429e-002	8.346278e-003
1.750000000000001e+000	2.255000e+000	3.244454e-002	8.587778e-003
1.800000000000001e+000	2.255000e+000	3.432797e-002	8.828361e-003
1.850000000000001e+000	2.255000e+000	3.647045e-002	9.067648e-003
1.900000000000001e+000	2.255000e+000	3.902069e-002	9.304897e-003
1.950000000000001e+000	2.255000e+000	4.235909e-002	9.538204e-003
2.000000000000001e+000	2.255000e+000	5.364382e-002	9.731781e-003
2.050000000000001e+000	2.255000e+000	1.036438e-001	9.731781e-003
2.100000000000001e+000	2.255000e+000	1.536438e-001	9.731781e-003
2.150000000000000e+000	2.255000e+000	2.036438e-001	9.731781e-003
2.200000000000000e+000	2.255000e+000	2.536438e-001	9.731781e-003
2.250000000000000e+000	2.255000e+000	3.036438e-001	9.731781e-003
2.300000000000000e+000	2.255000e+000	3.536438e-001	9.731781e-003
2.350000000000000e+000	2.255000e+000	4.036438e-001	9.731781e-003
2.400000000000000e+000	2.255000e+000	4.536438e-001	9.731781e-003
2.449999999999999e+000	2.255000e+000	5.036438e-001	9.731781e-003
2.499999999999999e+000	2.255000e+000	5.536438e-001	9.731781e-003
2.549999999999999e+000	2.255000e+000	6.036438e-001	9.731781e-003
2.599999999999999e+000	2.255000e+000	6.536438e-001	9.731781e-003
2.649999999999999e+000	2.255000e+000	7.036438e-001	9.731781e-003
2.699999999999998e+000	2.255000e+000	7.536438e-001	9.731781e-003
2.749999999999998e+000	2.255000e+000	8.036438e-001	9.731781e-003
2.799999999999998e+000	2.255000e+000	8.536438e-001	9.731781e-003
2.849999999999998e+000	2.255000e+000	9.036438e-001	9.731781e-003
2.899999999999998e+000	2.255000e+000	9.536438e-001	9.731781e-003
2.949999999999998e+000	2.255000e+000	1.003644e+000	9.731781e-003
2.999999999999997e+000	2.255000e+000	1.053644e+000	9.731781e-003
3.049999999999997e+000	2.255000e+000	1.103644e+000	9.731781e-003
3.099999999999997e+000	2.255000e+000	1.153644e+000	9.731781e-003
3.149999999999997e+000	2.255000e+000	1.203644e+000	9.731781e-003
3.199999999999997e+000	2.255000e+000	1.253644e+000	9.731781e-003
3.249999999999996e+000	2.255000e+000	1.303644e+000	9.731781e-003
3.299999999999996e+000	2.255000e+000	1.353644e+000	9.731781e-003
3.349999999999996e+000	2.255000e+000	1.403644e+000	9.731781e-003
3.399999999999996e+000	2.255000e+000	1.453644e+000	9.731781e-003
3.449999999999996e+000	2.255000e+000	1.503644e+000	9.731781e-003
3.499999999999996e+000	2.255000e+000	1.553644e+000	9.731781e-003
3.549999999999995e+000	2.255000e+000	1.603644e+000	9.731781e-003
3.599999999999995e+000	2.255000e+000	1.653644e+000	9.731781e-003
3.649999999999995e+000	2.255000e+000	1.703644e+000	9.731781e-003
3.699999999999995e+000	2.255000e+000	1.753644e+000	9.731781e-003
3.749999999999995e+000	2.255000e+000	1.803644e+000	9.731781e-003
3.799999999999995e+000	2.255000e+000	1.853644e+000	9.731781e-003
3.849999999999994e+000	2.255000e+000	1.903644e+000	9.731781e-003
3.899999999999994e+000	2.255000e+000	1.953644e+000	9.731781e-003
3.949999999999994e+000	2.255000e+000	2.003644e+000	9.731781e-003
3.999999999999994e+000	2.255000e+000	2.053644e+000	9.731781e-003
4.049999999999994e+000	2.255000e+000	2.103644e+000	9.731781e-003
4.099999999999993e+000	2.255000e+000	2.153644e+000	9.731781e-003
4.149999999999993e+000	2.255000e+000	2.203644e+000	9.731781e-003
4.199999999999993e+000	2.255000e+000	2.253644e+000	9.731781e-003
4.249999999999993e+000	2.255000e+000	2.303644e+000	9.731781e-003
4.299999999999993e+000	2.255000e+000	2.353644e+000	9.731781e-003
4.349999999999993e+000	2.255000e+000	2.403644e+000	9.731781e-003
4.399999999999992e+000	2.255000e+000	2.453644e+000	9.731781e-003
4.449999999999992e+000	2.255000e+000	2.503644e+000	9.731781e-003
4.499999999999992e+000	2.255000e+000	2.553644e+000	9.731781e-003
4.549999999999992e+000	2.255000e+000	2.603644e+000	9.731781e-003
4.599999999999992e+000	2.255000e+000	2.653644e+000	9.731781e-003
4.649999999999992e+000	2.255000e+000	2.703644e+000	9.731781e-003
4.699999999999991e+000	2.255000e+000	2.753644e+000	9.731781e-003
4.749999999999991e+000	2.255000e+000	2.803644e+000	9.731781e-003
4.799999999999991e+000	2.255000e+000	2.853644e+000	9.731781e-003
4.849999999999991e+000	2.255000e+000	2.903644e+000	9.731781e-003
4.899999999999991e+000	2.255000e+000	2.953644e+000	9.731781e-003
4.949999999999990e+000	2.255000e+000	3.003644e+000	9.731781e-003
5.000000000000000e+000	2.255000e+000	3.053644e+000	9.731781e-003
