#Digilent WaveForms Network Analyzer - Bode
#Device Name: Discovery2
#Serial Number: SN:210321AA2D13
#Date Time: 2024-01-11 13:03:28.291
#Start: 500 Hz
#Stop: 5e+06 Hz
#Steps: 500
#Wavegen: Wavegen C1
#Amplification: 1 X
#Settle: 10 ms
#MinPeriods: 16 
#Channel: Channel 1
#Range: 5.51459 V
#Offset: -0.000249803 V
#Relative: no
#Channel: Channel 2
#Range: 5.61338 V
#Offset: -0.000167248 V
#Relative: yes

Frequency (Hz),Channel 1 Magnitude (dB),Channel 2 Magnitude (dB),Channel 2 Phase (deg)
500,-1.019198025683652,20.02706692404197,-0.06279269844290614
509.3144951223438,-1.014417808659705,20.02757519255702,-0.06000031192123187
518.8025098834559,-1.035850528067938,20.03072444577374,-0.003055116382768119
528.4672767789942,-1.034466869621651,20.03178355560953,-0.0379510383714603
538.3120885227466,-1.042267161118995,20.03595758914859,-0.01001205844187325
548.3402991684343,-1.03179656731168,20.03507591917205,-0.1332495903453861
558.5553252524121,-1.016310455651919,20.03795687173285,-0.2070954726589207
568.9606469576576,-1.038053500227301,20.0192193745125,-0.03493717319008738
579.5598092994428,-1.051436812346312,20.04512808158651,-0.0705018449267385
590.3564233330951,-1.033777769822221,20.02445423012339,-0.03703119841335933
601.354167384256,-1.043728404961555,20.02689956238221,0.02232386134147646
612.5567883020595,-1.039519222451279,20.03035613141409,-0.1748820046131669
623.9681027356557,-1.029810427354523,20.03764556684165,-0.04829679977274282
635.5919984345145,-1.006591476870797,20.03549499796044,-0.07154808270939839
647.4324355729525,-1.042303588963443,20.04483174780958,-0.0850155125873755
659.4934480993352,-1.021956630013608,20.02219871328577,-0.04581800072783437
671.7791451104132,-1.026119684547517,20.02528250585824,-0.1475644191812613
684.2937122512596,-1.037112541443257,20.0321108144783,-0.2275579351018138
697.0414131412894,-1.009159824805462,20.02800050176528,-0.08788239675769205
710.0265908268416,-1.036600681180043,20.02697064074553,-0.08638238774605611
723.2536692608236,-0.9918263152003371,20.02205646816563,-0.2502046049865498
736.7271548099179,-1.040861985400329,20.02732551117624,-0.1628441506455118
750.4516377898683,-1.02915798323095,20.03166887324637,-0.0074275594046469
764.4317940293656,-1.059611125390884,20.03587620078674,-0.1499452127205672
778.6723864630676,-1.035470920552809,20.03287264736291,-0.1097410329090716
793.1782667542957,-1.015844501822048,20.02654502530364,-0.08228809969048712
807.9543769479596,-1.037518221105208,20.0342722111718,-0.101568555901423
823.0057511542749,-1.024205752744857,20.02500840311502,-0.1397193545531508
838.3375172638505,-1.00352071319661,20.01621195301279,-0.2248130592153359
853.9548986947134,-1.007211887385594,20.01899405742606,-0.1567493903558841
869.8632161719003,-1.038665974769766,20.02202517050265,-0.1480367021742381
886.0678895401792,-1.063829243957036,20.04267136713585,-0.2349021577029333
902.574439610554,-1.045394229738059,20.03064210833984,-0.132756610046826
919.3884900411634,-1.032307929621605,20.03967662926607,-0.1551264110426729
936.5157692532182,-1.004929924427437,20.02397241693039,-0.2960125067547494
953.9621123826325,-1.027863504374201,20.0470552810738,-0.07597510436305299
971.73346326801,-0.993771342358888,20.03350529741726,-0.1448656029439022
989.8358764756663,-1.001597668993143,20.0454800281007,-0.1105354959714475
1008.275519362373,-1.014819189096628,20.02204798861187,-0.09196374521474127
1027.058674176532,-1.026434604455287,20.03326229682665,-0.005195556866169682
1046.191740198489,-1.033994863235599,20.02676953290724,-0.05768573469838856
1065.681235920719,-1.022036616769258,20.03255324732551,-0.1021989916775254
1085.533801268632,-1.050403220199414,20.04869040382781,-0.02906678095180837
1105.756199862744,-1.048894706103651,20.03487941728732,-0.08460277606999966
1126.35532132299,-1.011793114424041,20.03209807207847,-0.2197879934650899
1147.338183615968,-1.027553994036436,20.02378395684261,-0.2348154080643354
1168.711935445907,-1.069294575697265,20.03202649610103,-0.2752641838560024
1190.483858690179,-1.031818391965431,20.02479308972839,-0.2892136331958728
1212.661370880176,-1.047209788733147,20.05548446158873,-0.3095110232081595
1235.252027728413,-1.052911410145586,20.02504316779564,-0.09728570791991942
1258.263525702696,-1.075299676078023,20.04662593062092,-0.2289191344840233
1281.703704648257,-1.046217600360812,20.03046138808823,-0.2167664472668278
1305.58055045873,-1.045949096369734,20.03294713158619,-0.186127414966478
1329.902197796879,-1.050364366550046,20.02838853476932,-0.3480831080765938
1354.676932866026,-0.9976106210332675,20.02330109219669,-0.2688161235453634
1379.91319623309,-1.057506815462211,20.04780661188988,-0.2947195639561926
1405.619585704232,-1.045747657566517,20.02291451281634,-0.2358023296944154
1431.804859254058,-1.070796700459632,20.04611000155981,-0.2430556599851457
1458.477938009398,-1.037348332911888,20.02058117983339,-0.2978294402271899
1485.647909288667,-1.058856092361255,20.03613387810011,-0.249199946321113
1513.324029697846,-1.064657766003986,20.04151445416577,-0.2247242575823805
1541.515728284139,-1.001790941159197,20.02297743413866,-0.3584917213998438
1570.232609748376,-0.9727884737152055,20.02457669667196,-0.3155453906104242
1599.484457717269,-1.073322118023632,20.05904920080293,-0.1142953569158038
1629.281238076613,-1.045158305917885,20.03300507704322,-0.3274470879071743
1659.633102366595,-0.9941642119789257,20.02763180947392,-0.2051025960024901
1690.550391240343,-1.012482579096907,20.01641696619614,-0.2704383689987111
1722.043637986912,-1.053443329128771,20.02320082320782,-0.3667785021493728
1754.123572119896,-1.011629873423136,20.02022041147393,-0.2545418583962373
1786.801123032894,-1.020831707860532,20.01361158500051,-0.308747780080779
1820.087423723071,-1.018209140464963,20.04292830346117,-0.3867470605668188
1853.993814584086,-1.038264779927421,20.03136777546094,-0.5342987345880061
1888.531847269684,-1.03488112070325,20.02050973453585,-0.3448272188481809
1923.713288629253,-0.988567176301996,19.9906362468194,-0.52154062046165
1959.550124716703,-1.030768106310986,20.0202421854936,-0.3748571309679392
1996.054564874027,-1.046166920874862,20.03749417514922,-0.3012965010898938
2033.239045890929,-1.016335587364156,20.02380128090019,-0.4289670669801851
2071.116236241949,-1.024651621683266,20.04113438368486,-0.3532631719411654
2109.699040402512,-1.009305074691585,20.0356076010357,-0.4321017039340944
2149.000603245399,-1.065822033138736,20.02619726356734,-0.4633127650889222
2189.034314519083,-1.044101845586216,20.00746721129707,-0.4407417522313608
2229.813813409547,-1.042856932474083,20.04216812229837,-0.4364595943386291
2271.352993187022,-1.051218991984178,20.02360549869806,-0.264202509009607
2313.666005939347,-1.059029097225574,20.01020337259954,-0.4102513962859984
2356.767267393453,-1.020754605484055,20.027023951552,-0.322248754234721
2400.671461826727,-1.02472450139675,20.02454166481504,-0.4404421351505334
2445.393547069795,-1.044363618037884,20.009666819936,-0.3304869985846324
2490.948759602583,-1.093744471025467,20.03249071886385,-0.487353285658898
2537.352619745233,-1.003664962551512,20.01465519625918,-0.3325163020001867
2584.620936945802,-1.010084497415066,20.01941380354782,-0.5126469149695012
2632.769815166378,-0.9825397029635418,20.00879038711901,-0.5641036734082547
2681.81565836962,-1.029103399452663,20.01885036852823,-0.4369218666440702
2731.775176107438,-1.022667227510195,20.02226228762883,-0.4332161923797742
2782.665389213823,-1.060864115920345,20.02582542165463,-0.4960470672118333
2834.503635603717,-1.059392203205633,20.01839730691992,-0.5559464131878045
2887.30757617991,-1.013386797029248,20.02608216455468,-0.5576753506598127
2941.095200849978,-1.030677313331237,20.01915187603025,-0.3756744774908611
2995.88483465531,-1.065165297374691,20.03114687627725,-0.4514492701932031
3051.695144014311,-1.037910668416806,20.03817009483225,-0.5323586324285259
3108.545143081913,-1.003930872506071,20.03632784018841,-0.5542887791491289
3166.454200227557,-1.062203047592774,20.04170969824692,-0.5703073063369359
3225.442044633846,-1.036503723551115,20.04102930008429,-0.6361485195073016
3285.528773018135,-1.047756931996489,20.01566772363659,-0.4118320939224134
3346.73485647933,-1.086737284718069,20.04294526582223,-0.61400950590658
3409.08114747224,-1.023950610325004,20.03773157079523,-0.5125619069662886
3472.588886911848,-0.9778857884601911,20.00805468395985,-0.6033279975145263
3537.279711409939,-1.055056525057669,20.02148439161573,-0.5754744782537458
3603.175660646526,-1.068113258396642,20.04101454868052,-0.4053223541613953
3670.299184878606,-1.074757382179659,20.03705573763292,-0.7415374962628505
3738.673152588794,-1.031941837250675,20.05187875028404,-0.6266914620411086
3808.320858276446,-1.088006006118408,20.05298802182871,-0.6324423193281348
3879.266030393918,-1.013919415646916,20.03186576988173,-0.7255491474336111
3951.532839430674,-1.013468225230483,20.02923935971706,-0.8231759848348421
4025.145906147991,-1.049934173077221,20.01199478485384,-0.6566654259433449
4100.130309967065,-1.042514327184793,20.03475249310326,-0.7644223634195271
4176.511597513389,-1.079197022368914,20.02476364918657,-0.7447953074208442
4254.315791320291,-1.031719358685657,20.01366672605146,-0.6713328275120105
4333.569398694616,-1.043460490969967,20.02350189548794,-0.7626587501409148
4414.299420747575,-1.040287176862164,20.01440546594468,-0.7890935897457254
4496.533361593812,-1.041941054962486,20.03525181527493,-0.779019127803025
4580.299237721854,-1.047482455512251,20.03499182818894,-0.8396160315330832
4665.625587539125,-1.042624219798727,20.03405811703952,-0.8450131285520399
4752.541481094756,-1.031210021030808,20.02278111484009,-1.032076488680588
4841.076529983543,-0.9932989859157266,20.01116717665155,-0.8546793962619681
4931.260897434392,-1.051635938422605,20.05425799725835,-0.8488792244827579
5023.125308586702,-1.061848963595903,20.03387518637661,-0.8901258604670659
5116.701060958211,-1.096978200797845,20.05121037813875,-0.8392115285858495
5212.020035107779,-1.085865448585073,20.04265686176033,-0.8783912468821029
5309.114705496923,-1.029988382688725,20.02209549258796,-0.8885682393882917
5408.018151553547,-1.057526802421411,20.02646087955915,-0.8189458472113813
5508.764068941937,-0.9451857476119007,19.98278392427412,-0.8178378017783245
5611.386781042536,-0.9720634275934675,20.0068908094858,-0.9048203975853113
5715.921250645752,-1.062480328669428,20.02206542395644,-0.9549762199950322
5822.403091863428,-1.074170415583315,20.04382353777797,-0.8744720366926799
5930.868582262396,-1.067800510621148,20.02949637344098,-0.9572890182989795
6041.35467522388,-1.01162782290275,20.01002896108424,-1.047853848328572
6153.899012533328,-1.028040170830649,20.01044865118374,-1.245545036854622
6268.539937204598,-1.061087778138688,20.03611411610617,-1.086194251750072
6385.316506543223,-1.030679375177983,20.02652451619733,-1.19514164544872
6504.268505452853,-1.096198955816289,20.0233006144283,-1.163813029189762
6625.436459989769,-1.034871117349681,20.00377352516588,-1.200079278623534
6748.861651169708,-1.051464706930664,20.0229753447746,-1.109555004803582
6874.586129032103,-1.0508738617377,20.02697244890316,-1.155523228791072
7002.652726966098,-1.013341079252894,20.03882468585392,-1.192634565940303
7133.105076303692,-1.032893551373756,20.06069525185886,-1.218980260314737
7265.987621184478,-1.030240584192943,19.99807384768388,-1.392885752438843
7401.345633697551,-1.082720984968562,20.03071357343704,-1.278913920725444
7539.225229305255,-1.068459695232373,20.04377754339994,-1.411072247406768
7679.673382554493,-1.028075436888765,20.02301344018604,-1.318653023974036
7822.737943080479,-1.047942312755391,20.03268801244072,-1.446257072107045
7968.46765190888,-1.066965042618129,20.01943266744498,-1.382698906480819
8116.912158061392,-1.091213146710727,20.00394128898779,-1.516569836412835
8268.122035470911,-1.005239539644971,20.00190228219083,-1.393891140274746
8422.148800211577,-1.016758872510259,19.99770901406644,-1.404969953301597
8579.044928050023,-1.028839364054545,20.03045615398579,-1.155177608476009
8738.863872323403,-1.069392038868256,20.0202883976412,-1.356612361192768
8901.660082150569,-1.017769180821328,20.01426411016457,-1.496467724166749
9067.489020982477,-1.028505772611042,20.01584927465073,-1.619366292828772
9236.40718549817,-1.059487413519292,20.03620015119527,-1.523020239963103
9408.472124852779,-0.9989981552362724,19.99651336861718,-1.644243204298668
9583.742460284075,-1.074776101817202,20.01862127096126,-1.729702264962953
9762.277905084306,-1.062933476472403,20.01817935762163,-1.607477108818031
9944.139284944049,-1.013450060033668,19.99155024166732,-1.702444334702719
10129.38855867509,-1.012266466820996,19.98149545666947,-1.960310414269884
10318.08883931929,-1.070517894991207,20.04021056543339,-1.983702221588619
10510.30441565079,-1.071760763291514,20.0182896988502,-1.916132145877484
10706.10077407865,-1.072594979068442,20.03671089888851,-2.000659440564647
10905.5446209576,-1.040591651952606,20.0228037714421,-1.903587983207814
11108.70390531442,-1.053794953420034,20.00390086474431,-2.110037389230087
11315.64784199765,-1.069477896360858,20.02302885107412,-1.977479149469858
11526.44693525854,-1.059084407614081,20.00317482709947,-2.095436229239951
11741.17300277138,-1.045029016112468,20.0034554110781,-2.196907557915125
11959.8992001012,-1.0698288552955,20.01372967048875,-2.239961952863268
12182.70004562733,-1.026899666544652,20.02368601025996,-2.011772315447018
12409.65144593127,-1.068061796335882,20.01451380057536,-2.229664373149497
12640.8307216575,-1.069256282096491,20.02461176844677,-2.057064434342593
12876.31663385601,-1.102385760762352,20.03809040187281,-2.322628231415258
13116.18941081562,-1.009297176937052,19.97457849335814,-2.143274317120046
13360.53077539718,-1.095440279437804,20.00550497427758,-2.43196770436721
13609.4239728759,-1.047143044481446,20.01797321822377,-2.565396013143612
13862.95379930242,-1.096150890092079,20.02403417068947,-2.724238656896333
14121.20663039218,-1.084303388017209,20.01030070172334,-2.49558565162836
14384.27045095296,-1.08882483628417,20.01329257951911,-2.75588580635511
14652.23488486072,-1.091868158109214,20.01585632126735,-2.626129500806769
14925.19122559365,-1.13483201522477,20.05874204993209,-2.669845486883268
15203.23246733534,-1.050758839870151,19.98170183212811,-2.610027341169506
15486.45333665703,-1.061312024011969,19.97430311953988,-2.59552387475847
15774.95032479044,-1.064253868347518,20.01926768074707,-2.926556592738464
16068.82172050138,-1.055951024429726,20.01355216220247,-3.022065562642013
16368.16764357624,-1.069814157577189,20.01601115315905,-2.63292827694184
16673.09007893181,-1.133551633740934,20.01789110666233,-3.099775051684944
16983.69291136105,-1.058682239035561,19.98157040625879,-3.070630102474126
17300.08196092554,-1.133271652501828,20.03133430813092,-2.939422197296359
17622.36501900794,-1.111195527757701,20.00535010638227,-3.128813149462701
17950.65188503534,-1.1259981602131,20.03695395937317,-3.350403755355934
18285.05440388747,-1.140106630580042,20.01296390308701,-3.106812742426257
18625.68650400105,-1.060081894265468,19.95327441202111,-3.219560373448871
18972.66423618471,-1.098687694650228,19.96220653365029,-3.331259762515259
19326.10581315631,-1.112685690724412,19.9647604996992,-3.286559435097615
19686.13164981742,-1.144438689360183,19.9870030676646,-3.383017404674632
20052.86440427748,-1.101803511294692,19.98815499820824,-3.557532122795976
20426.42901964283,-1.154761450762094,19.98895730644861,-3.762879197612733
20806.95276658353,-1.114098375628708,19.96759037028071,-3.906954971779172
21194.56528669392,-1.183024025425838,20.02294161277261,-3.570597678246671
21589.39863666011,-1.118999210479565,19.98642425703444,-3.951627159149041
21991.58733325114,-1.132760883563057,19.98172734777021,-4.052710155453042
22401.26839914745,-1.194637991236448,20.01062238613921,-3.91548139412933
22818.58140962382,-1.205030234052622,20.04297568546393,-4.189754643445269
23243.66854010128,-1.170028809041209,19.99840252197851,-3.979296225548495
23676.67461458558,-1.172122890284595,20.00613344485667,-4.217350849664977
24117.74715500734,-1.190408579803509,20.02535980882848,-4.462940954087841
24567.03643148181,-1.162140362185711,20.0161757352343,-4.384943894423399
25024.69551350477,-1.161638914857693,19.98122262916829,-4.461870004347844
25490.88032210213,-1.178959812582747,19.95543467080606,-4.468907852022511
25965.74968295106,-1.237975968800123,20.0394875329077,-4.59658030173772
26449.46538049075,-1.213795593723993,20.00278937810039,-4.713349899727817
26942.19221304111,-1.22377583189347,20.01775388591229,-4.811458326889422
27444.09804894836,-1.25516960780236,20.00697471392442,-4.963856759853854
27955.35388377646,-1.282159820143962,19.98730893482426,-5.244199590336393
28476.13389856412,-1.290545360957587,19.98763822557441,-5.031197677725658
29006.61551916689,-1.299445954822879,19.98824178991353,-5.037601169389049
29546.97947670486,-1.219937937065535,19.945138840221,-5.34198283726376
30097.40986913637,-1.295265332350637,19.9784350959993,-5.559877850255106
30658.09422397887,-1.255556908298016,19.94738686481817,-5.216549320958975
31229.22356219809,-1.378414474019602,20.04448690819455,-5.204997204877415
31810.99246328745,-1.271394953353147,19.94734229825614,-5.455077298115331
32403.59913155985,-1.272092143423602,19.95467209463237,-5.659041672568065
33007.24546367445,-1.325374263151958,19.96907868077899,-5.720479193310226
33622.13711742125,-1.331826397167397,19.95792881086801,-5.653494171490074
34248.48358178724,-1.373719760844821,19.97837710692379,-5.947813659040548
34886.49824832769,-1.350420071068069,19.95268507924757,-6.69494899759664
35536.39848386709,-1.361642780000635,19.96404556778435,-6.296047711688743
36198.40570455439,-1.35467385205045,19.93171660430761,-6.162973140693197
36872.74545129777,-1.491444421009379,19.99273242763883,-6.97514531353854
37559.64746660485,-1.431436353373142,19.97944851190252,-6.503382131560514
38259.34577285413,-1.421288386358216,19.91651951017657,-6.853823841830199
38972.07875202475,-1.42839070584039,19.95693211626472,-7.044719636141608
39698.08922691138,-1.366639640203376,19.92842562170685,-6.99944425622661
40437.62454385228,-1.447700133001659,19.89346098328992,-6.784696831370615
41190.936656998,-1.474314202507153,19.91193079993825,-7.726535146785402
41958.28221415081,-1.611851606706808,19.96569620029632,-7.408166650362617
42739.92264420203,-1.536725608512696,19.89123854744609,-7.609889033890106
43536.12424619962,-1.515650612812449,19.91901072058774,-7.670014427191617
44347.15828007353,-1.506103358441993,19.85241716430296,-7.858447826472628
45173.30105905267,-1.597093131461848,19.90588317380548,-7.933148344602827
46014.83404380205,-1.508087907487285,19.87676644284723,-8.148124098665196
46872.043938315,-1.568013350802864,19.87586827028046,-7.982633151806965
47745.22278759039,-1.654249107485409,19.88729342390969,-7.786738538828665
48634.6680771309,-1.656032198385105,19.91290454822962,-9.032057029382756
49540.68283429333,-1.611838346549905,19.87458349796386,-8.642076585335783
50463.57573152854,-1.719405519214299,19.85556430255728,-9.110046442177008
51403.66119154324,-1.806149882992798,19.95528153376384,-9.014264929112969
52361.25949442172,-1.714932010476952,19.86675935193329,-9.391982397738531
53336.69688674285,-1.830060227211664,19.89357909276733,-9.246295362667098
54330.30569272984,-1.694295294431021,19.7612370162301,-9.481855083297262
55342.42442747059,-1.827374919510032,19.85075557725765,-10.00779154770953
56373.3979122473,-1.904727724770611,19.84589917940388,-9.926313558656702
57423.57739201445,-1.915445808140857,19.89094163398009,-9.875009804720776
58493.32065506535,-1.920140727835757,19.88335600240009,-10.34598672961386
59582.99215492794,-1.964302200827158,19.82969432556738,-10.16450417516427
60692.96313453138,-1.964145455682691,19.81404091734438,-10.56432644246851
61823.61175268575,-2.087911465760736,19.84732590415782,-11.21835921113149
